! TOUCHSTONE file generated by CST MICROWAVE STUDIO
! Date and time: Sat Feb 15 04:13:26 2025
! Project name: Patch antenna.cst
! Header version: 2024
! Port assignment regex: !\s*Touchstone port\s*([0-9]+)\s*=\s*(CST MWS port|CST DES external port|CST DES block port)\s*(.+)\s* \(\"(.*)\"\)(\s*mode\s*([0-9]+))?.*
! Touchstone port assignment:
! Touchstone port 1 = CST MWS port 1 ("Source")
! Touchstone port 2 = CST MWS port 2 ("Serial")
! Touchstone port 3 = CST MWS port 3 ("Parallel")
# GHz S MA R 50
0                    2.01511e-06              -0                1              -0     9.835256e-07              -0
                       0.9999999              -0     1.859194e-06             180     2.953556e-06              -0
                    9.874398e-07              -0     2.958348e-06              -0        0.9999999             180
0.005                0.001594913        89.66288        0.9999947      -0.1348604      0.002833954        89.67023
                       0.9999947      -0.1348603      0.001598585        89.77681      0.002837678       -90.26528
                     0.002833957        89.67023      0.002837684       -90.26517        0.9999888        179.6186
0.01                 0.003192323        89.40149        0.9999788      -0.2697173      0.005669017        89.36151
                       0.9999788      -0.2697173      0.003194708        89.48439      0.005671436       -90.59251
                     0.005669032        89.36156      0.005671449       -90.59247        0.9999595        179.2375
0.015                0.004791267        89.07975        0.9999524      -0.4045653      0.008504668        89.03639
                       0.9999524      -0.4045655      0.004789154        89.24785      0.008502509       -90.86976
                     0.008504697        89.03644       0.00850253       -90.86972        0.9999192        178.8567
0.02                 0.006388523        88.74162        0.9999153      -0.5393965       0.01133928        88.70667
                       0.9999153      -0.5393966      0.006384798        89.02621       0.01133545       -91.13372
                      0.01133932        88.70665       0.01133548       -91.13369        0.9998679        178.4757
0.025                0.007982846        88.41796        0.9998676      -0.6742026       0.01417213        88.38068
                       0.9998676      -0.6742028      0.007982604        88.79072       0.01417177       -91.41004
                      0.01417218        88.38066        0.0141718       -91.41002        0.9997991        178.0943
0.03                 0.009576546         88.1139        0.9998094      -0.8089788        0.0170042        88.06007
                       0.9998094      -0.8089789      0.009580227        88.53718       0.01700774       -91.70248
                      0.01700425        88.06005       0.01700778       -91.70248        0.9997079         177.713
0.035                 0.01117228        87.81301        0.9997407      -0.9437229        0.0198367        87.74056
                       0.9997407       -0.943723        0.0111751        88.28135       0.01983926         -91.997
                      0.01983676        87.74059       0.01983931       -91.99699        0.9995982         177.332
0.04                  0.01276939        87.50018        0.9996616       -1.078432       0.02266933          87.418
                       0.9996616       -1.078432       0.01276782        88.03693       0.02266729       -92.28127
                      0.02266941        87.41802       0.02266735       -92.28126        0.9994773        176.9513
0.045                 0.01436467        87.17765        0.9995716       -1.213099       0.02550049        87.09269
                       0.9995716       -1.213099       0.01436126         87.8013       0.02549637       -92.55769
                      0.02550057        87.09271       0.02549643       -92.55768        0.9993458        176.5705
0.05                   0.0159566        86.85838        0.9994712       -1.347713       0.02832925        86.76808
                       0.9994712       -1.347713       0.01595655         87.5622       0.02832828       -92.83722
                      0.02832934        86.76808       0.02832835        -92.8372        0.9991971        176.1894
0.055                 0.01754729        86.54897        0.9993603       -1.482267       0.03115645        86.44616
                       0.9993603       -1.482267       0.01755148        87.31403       0.03115948       -93.12486
                      0.03115655        86.44616       0.03115955       -93.12484        0.9990262        175.8082
0.06                  0.01913954        86.24307         0.999239        -1.61676       0.03398339        86.12548
                        0.999239       -1.616761       0.01914338        87.06327       0.03398573       -93.41479
                      0.03398351         86.1255       0.03398582       -93.41479        0.9988365        175.4275
0.065                 0.02073298        85.93122        0.9991073       -1.751193       0.03680999         85.8034
                       0.9991073       -1.751193       0.02073267        86.81854        0.0368077        -93.6993
                      0.03681013        85.80341        0.0368078        -93.6993        0.9986353         175.047
0.07                  0.02232447        85.61277        0.9989648       -1.885558        0.0396347        85.47947
                       0.9989648       -1.885559       0.02232219        86.57981       0.03962988       -93.97847
                      0.03963486        85.47947       0.03962999       -93.97847        0.9984238        174.6665
0.075                 0.02391223        85.29544        0.9988121       -2.019842       0.04245642        85.15567
                       0.9988121       -2.019843       0.02391325        86.33964       0.04245435       -94.25891
                      0.04245659        85.15564       0.04245447       -94.25891        0.9981958        174.2857
0.08                  0.02549813         84.9846        0.9986488       -2.154037        0.0452758        84.83364
                       0.9986488       -2.154038       0.02550377        86.09353       0.04527776       -94.54466
                      0.04527598        84.83362       0.04527788       -94.54466        0.9979457        173.9049
0.085                  0.0270851        84.67698        0.9984753       -2.288143       0.04809423        84.51275
                       0.9984753       -2.288144       0.02709099        85.84511       0.04809573       -94.83246
                      0.04809444        84.51275       0.04809587       -94.83246        0.9976765        173.5245
0.09                  0.02867306        84.36573        0.9982915       -2.422162       0.05091184        84.19116
                       0.9982915       -2.422163       0.02867515        85.60067       0.05090865       -95.11668
                      0.05091207        84.19115        0.0509088       -95.11668        0.9973958        173.1444
0.095                 0.03025896        84.04948        0.9980972       -2.556088       0.05372714         83.8682
                       0.9980972        -2.55609       0.03025906        85.36084       0.05372095       -95.39674
                       0.0537274        83.86817       0.05372112       -95.39677        0.9971052        172.7643
0.1                   0.03184078        83.73348        0.9978925       -2.689908       0.05653889        83.54515
                       0.9978925        -2.68991       0.03184419        85.12045       0.05653498       -95.67734
                      0.05653916        83.54509       0.05653517       -95.67735        0.9967984         172.384
0.105                 0.03342014        83.42226        0.9976775       -2.823609       0.05934755        83.22341
                       0.9976775       -2.823611       0.03342861        84.87568       0.05934761       -95.96182
                      0.05934784        83.22334       0.05934781       -95.96185        0.9964699        172.0036
0.11                  0.03500006        83.11399        0.9974524       -2.957192       0.06215456        82.90274
                       0.9974524       -2.957194       0.03500947        84.62889       0.06215436       -96.24811
                      0.06215487        82.90269       0.06215457       -96.24814        0.9961221        171.6237
0.115                 0.03658076        82.80339        0.9972172       -3.090662       0.06496024        82.58176
                       0.9972172       -3.090665       0.03658683        84.38497       0.06495528       -96.53178
                      0.06496058        82.58168       0.06495551       -96.53184        0.9957627        171.2441
0.12                  0.03815931        82.48878        0.9969717       -3.224016       0.06776325        82.25972
                       0.9969716       -3.224019       0.03816346        84.14488       0.06775478       -96.81204
                      0.06776361        82.25961       0.06775502       -96.81211        0.9953936        170.8646
0.125                 0.03973345        82.17393        0.9967158       -3.357237       0.07056216        81.93747
                       0.9967158        -3.35724         0.039741        83.90468       0.07055544       -97.09238
                      0.07056253        81.93734       0.07055569       -97.09246        0.9950091        170.4848
0.13                  0.04130456        81.86283        0.9964497       -3.490311       0.07335727        81.61624
                       0.9964497       -3.490314       0.04131765        83.66108       0.07335437       -97.37575
                      0.07335764        81.61611       0.07335464       -97.37584         0.994603        170.1051
0.135                 0.04287569         81.5545        0.9961738       -3.623239       0.07614999        81.29608
                       0.9961737       -3.623242       0.04289051        83.41568       0.07614699       -97.66073
                      0.07615038        81.29593       0.07614725       -97.66081        0.9941777        169.7257
0.14                  0.04444739        81.24464        0.9958879       -3.756028       0.07894091        80.97581
                       0.9958879       -3.756032       0.04445944        83.17248       0.07893305       -97.94369
                      0.07894132        80.97566       0.07893332        -97.9438        0.9937406        169.3468
0.145                 0.04601686        80.93144        0.9955921       -3.888678       0.08172878        80.65473
                        0.995592       -3.888682       0.04602717        82.93255       0.08171687       -98.22373
                       0.0817292        80.65454       0.08171716       -98.22384        0.9932943         168.968
0.15                  0.04758163        80.61777        0.9952859        -4.02117       0.08451206        80.33339
                       0.9952858       -4.021174       0.04759548        82.69284        0.0845013       -98.50355
                      0.08451249        80.33317       0.08450159       -98.50369        0.9928333        168.5889
0.155                 0.04914278        80.30711        0.9949697       -4.153487        0.0872908        80.01287
                       0.9949697       -4.153491       0.04916274        82.45039       0.08728369        -98.7858
                      0.08729124        80.01264         0.087284       -98.78594         0.992351        168.2098
0.16                  0.05070345        79.99906        0.9946439       -4.285629        0.0900665        79.69337
                       0.9946438       -4.285633         0.050726        82.20631       0.09005935       -99.06951
                      0.09006693        79.69315       0.09005965       -99.06966        0.9918494        167.8312
0.165                 0.05226446        79.69007        0.9943085        -4.41761       0.09283987        79.37398
                       0.9943084       -4.417613       0.05228493        81.96396       0.09282776       -99.35164
                      0.09284032        79.37373       0.09282806       -99.35178        0.9913358        167.4531
0.17                  0.05382316        79.37823         0.993963       -4.549427       0.09560985        79.05393
                        0.993963        -4.54943       0.05384217        81.72452       0.09559313       -99.63113
                       0.0956103        79.05366       0.09559344        -99.6313        0.9908136         167.075
0.175                  0.0553769        79.06576        0.9936077       -4.681062       0.09837477        78.73361
                       0.9936077       -4.681065       0.05539968         81.4855       0.09835855       -99.91024
                       0.0983752        78.73332       0.09835885       -99.91042        0.9902771        166.6968
0.18                   0.0569265        78.75578        0.9932425       -4.812495        0.1011345        78.41397
                       0.9932424       -4.812498       0.05695599        81.24426        0.1011216       -100.1913
                       0.1011349        78.41367        0.1011219       -100.1915        0.9897202        166.3185
0.185                 0.05847506        78.44828        0.9928678       -4.943727        0.1038905        78.09533
                       0.9928678        -4.94373       0.05850809        81.00152        0.1038776       -100.4737
                       0.1038909        78.09501        0.1038779       -100.4739        0.9891437        165.9407
0.19                  0.06002373        78.14025        0.9924839       -5.074771        0.1066436        77.77692
                       0.9924838       -5.074775       0.06005546        80.76018        0.1066256       -100.7549
                        0.106644         77.7766        0.1066259       -100.7551        0.9885553        165.5635
0.195                 0.06157004        77.82982        0.9920903       -5.205631         0.109393        77.45802
                       0.9920902       -5.205634       0.06160069        80.52146        0.1093699       -101.0336
                       0.1093934        77.45767        0.1093702       -101.0338        0.9879586        165.1863
0.2                   0.06311116        77.51864        0.9916868       -5.336286         0.112137        77.13883
                       0.9916867       -5.336289       0.06314588        80.28334        0.1121136       -101.3118
                       0.1121373        77.13847        0.1121139        -101.312        0.9873485         164.809
0.205                 0.06464763        77.20953        0.9912739       -5.466713        0.1148751        76.82021
                       0.9912738       -5.466714       0.06468971        80.04338        0.1148547       -101.5916
                       0.1148754        76.81986        0.1148549       -101.5919        0.9867183        164.4318
0.21                  0.06618253        76.90279        0.9908517       -5.596912        0.1176087        76.50255
                       0.9908516       -5.596913       0.06622915        79.80203        0.1175883       -101.8727
                        0.117609         76.5022        0.1175886       -101.8729        0.9860687        164.0549
0.215                 0.06771728        76.59587        0.9904206       -5.726899        0.1203391        76.18526
                       0.9904204       -5.726901       0.06776351        79.56182        0.1203134       -102.1527
                       0.1203393         76.1849        0.1203136       -102.1529        0.9854071        163.6786
0.22                  0.06924963        76.28688        0.9899799       -5.856681        0.1230653        75.86761
                       0.9899798       -5.856683       0.06929527        79.32404        0.1230339       -102.4305
                       0.1230656        75.86724        0.1230341       -102.4307        0.9847376        163.3025
0.225                 0.07077659        75.97707        0.9895298       -5.986236        0.1257858        75.54966
                       0.9895297       -5.986236       0.07082667        79.08696        0.1257534       -102.7076
                        0.125786        75.54928        0.1257536       -102.7079        0.9840556        162.9263
0.23                  0.07229842          75.669        0.9890705       -6.115538        0.1284998        75.23223
                       0.9890704       -6.115538       0.07235658        78.84837          0.12847       -102.9861
                          0.1285        75.23184        0.1284701       -102.9864         0.983354          162.55
0.235                 0.07381816         75.3632         0.988602       -6.244587        0.1312086        74.91571
                       0.9886019       -6.244586       0.07388192        78.60848        0.1311788       -103.2658
                       0.1312088        74.91533        0.1311789        -103.266        0.9826332        162.1742
0.24                  0.07533747         75.0575         0.988125       -6.373401        0.1339137        74.59966
                       0.9881249         -6.3734       0.07540185        78.36956        0.1338784       -103.5445
                       0.1339138        74.59927        0.1338785       -103.5447        0.9819002         161.799
0.245                 0.07685436        74.75004         0.987639       -6.501988        0.1366144        74.28336
                       0.9876389       -6.501987       0.07691873        78.13287        0.1365727       -103.8212
                       0.1366145        74.28296        0.1365728       -103.8214        0.9811599        161.4241
0.25                  0.07836572        74.44167        0.9871437       -6.630328        0.1393089        73.96679
                       0.9871436       -6.630327       0.07843495          77.897        0.1392654       -104.0971
                        0.139309         73.9664        0.1392655       -104.0974        0.9804081         161.049
0.255                 0.07987147        74.13481        0.9866394       -6.758392        0.1419964        73.65065
                       0.9866393        -6.75839       0.07994953        77.65986         0.141955       -104.3742
                       0.1419965        73.65024        0.1419551       -104.3744         0.979637        160.6739
0.26                   0.0813746        73.83012        0.9861264       -6.886179        0.1446782        73.33539
                       0.9861262       -6.886176       0.08145944        77.42153        0.1446365       -104.6523
                       0.1446782          73.335        0.1446366       -104.6526        0.9788468        160.2993
0.265                 0.08287706        73.52575        0.9856052       -7.013706        0.1473556        73.02069
                        0.985605       -7.013703       0.08296358        77.18401        0.1473084       -104.9296
                       0.1473556        73.02031        0.1473084       -104.9299        0.9780447        159.9252
0.27                  0.08437705        73.21988        0.9850751       -7.140989        0.1500284        72.70586
                        0.985075       -7.140985       0.08446427        76.94857        0.1499741       -105.2051
                       0.1500283        72.70546        0.1499741       -105.2053        0.9772355        159.5515
0.275                  0.0858714        72.91307        0.9845362       -7.268005        0.1526947        72.39078
                       0.9845361          -7.268       0.08596397        76.71404        0.1526378       -105.4797
