!  Measured S-parameter data for IEEE EPS TC-EDMS Benchmark Suite
!  Package Microstrip Tranmission Line Test Structure
!
# Hz S RI R 50
50000000.000 +9.2160180211E-003 +7.2814652231E-004 +9.9122315645E-001 -3.4270141274E-002 +9.9133384228E-001 -3.3451225609E-002 +9.0924128890E-003 +1.3857539743E-003
74968750.000 +7.9825427383E-003 +1.7663309118E-003 +9.8963534832E-001 -5.1315274090E-002 +9.8930203915E-001 -5.1034435630E-002 +8.2838973030E-003 +8.5409806343E-004
99937500.000 +8.9359013364E-003 +1.2754735071E-003 +9.8794889450E-001 -6.8143434823E-002 +9.8799282312E-001 -6.7857928574E-002 +8.7452651933E-003 +4.6466704225E-004
124906250.000 +9.8308362067E-003 +6.9866440026E-004 +9.8583650589E-001 -8.4809698164E-002 +9.8547685146E-001 -8.4412001073E-002 +9.5770861953E-003 +9.3763554469E-004
149875000.000 +1.0593596846E-002 -4.6968143579E-005 +9.8322778940E-001 -1.0110942274E-001 +9.8331767321E-001 -1.0093129426E-001 +1.0073794052E-002 +9.7643211484E-004
174843750.000 +1.1191717349E-002 -5.1715847803E-004 +9.8063516617E-001 -1.1730814725E-001 +9.8054742813E-001 -1.1695306748E-001 +1.0870934464E-002 +1.5181190975E-004
199812500.000 +1.2561041862E-002 -5.0964934053E-004 +9.7767615318E-001 -1.3341337442E-001 +9.7747164965E-001 -1.3306635618E-001 +1.1972095817E-002 -1.1380905053E-003
224781250.000 +1.2120659463E-002 -1.2050750665E-003 +9.7422623634E-001 -1.4817367494E-001 +9.7430855036E-001 -1.4828778803E-001 +1.1642795056E-002 -1.4029742451E-003
249750000.000 +1.1886903085E-002 -2.5928325485E-003 +9.7108381987E-001 -1.6414159536E-001 +9.7141188383E-001 -1.6455645859E-001 +1.0846570134E-002 -1.5385111328E-003
274718750.000 +1.3661110774E-002 -3.4153847955E-003 +9.6778970957E-001 -1.7998409271E-001 +9.6731364727E-001 -1.7988206446E-001 +1.2639398687E-002 -2.1824229043E-003
299687500.000 +1.4731721953E-002 -3.4886582289E-003 +9.6404087543E-001 -1.9563287497E-001 +9.6371960640E-001 -1.9465275109E-001 +1.3777672313E-002 -3.1813108362E-003
324656250.000 +1.3948505744E-002 -4.4072992168E-003 +9.5995825529E-001 -2.1090699732E-001 +9.5982784033E-001 -2.1066154540E-001 +1.2727623805E-002 -4.3022152968E-003
349625000.000 +1.3950734399E-002 -5.3948932327E-003 +9.5573139191E-001 -2.2624103725E-001 +9.5555442572E-001 -2.2535519302E-001 +1.2457082979E-002 -4.9561401829E-003
374593750.000 +1.5082613565E-002 -6.3232695684E-003 +9.5132791996E-001 -2.4123318493E-001 +9.5098024607E-001 -2.4171675742E-001 +1.3490010984E-002 -5.6674499065E-003
399562500.000 +1.4804744162E-002 -7.6670306735E-003 +9.4655644894E-001 -2.5635868311E-001 +9.4629323483E-001 -2.5606775284E-001 +1.3397664763E-002 -5.9328982607E-003
424531250.000 +1.5285792761E-002 -8.5637383163E-003 +9.4150340557E-001 -2.7098065615E-001 +9.4138514996E-001 -2.7073302865E-001 +1.3254343532E-002 -7.2038462386E-003
449500000.000 +1.6048597172E-002 -8.8842790574E-003 +9.3646794558E-001 -2.8630250692E-001 +9.3653607368E-001 -2.8551664948E-001 +1.4017097652E-002 -8.5880737752E-003
474468750.000 +1.5318120830E-002 -9.6968133003E-003 +9.3124639988E-001 -3.0106863379E-001 +9.3123054504E-001 -3.0025261641E-001 +1.3465148397E-002 -9.3005029485E-003
499437500.000 +1.4357910492E-002 -1.1746631935E-002 +9.2579209805E-001 -3.1496784091E-001 +9.2558741570E-001 -3.1471803784E-001 +1.2477976270E-002 -9.4787217677E-003
524406250.000 +1.5476738103E-002 -1.2988595292E-002 +9.2011636496E-001 -3.3000925183E-001 +9.1998511553E-001 -3.2925540209E-001 +1.3452827930E-002 -1.0506649502E-002
549375000.000 +1.6468102112E-002 -1.3410591520E-002 +9.1426360607E-001 -3.4384620190E-001 +9.1409927607E-001 -3.4365910292E-001 +1.4160370454E-002 -1.1909764260E-002
574343750.000 +1.5315507539E-002 -1.4087294228E-002 +9.0812581778E-001 -3.5808891058E-001 +9.0780979395E-001 -3.5789284110E-001 +1.2855975889E-002 -1.2426581234E-002
599312500.000 +1.4701434411E-002 -1.5108672902E-002 +9.0149176121E-001 -3.7216389179E-001 +9.0158504248E-001 -3.7192758918E-001 +1.2211643159E-002 -1.3486224227E-002
624281250.000 +1.4956192113E-002 -1.6362985596E-002 +8.9499479532E-001 -3.8597095013E-001 +8.9501744509E-001 -3.8575494289E-001 +1.2755302712E-002 -1.4442774467E-002
649250000.000 +1.4706033282E-002 -1.8089286983E-002 +8.8851749897E-001 -3.9920845628E-001 +8.8830679655E-001 -3.9959019423E-001 +1.2474324554E-002 -1.4717119746E-002
674218750.000 +1.4688463882E-002 -1.9085109234E-002 +8.8161224127E-001 -4.1283473372E-001 +8.8151228428E-001 -4.1335466504E-001 +1.1977118440E-002 -1.5600480139E-002
699187500.000 +1.5229402110E-002 -1.8629658967E-002 +8.7452787161E-001 -4.2649233341E-001 +8.7442636490E-001 -4.2698177695E-001 +1.2182191014E-002 -1.7575660720E-002
724156250.000 +1.3853581622E-002 -1.9313747063E-002 +8.6747384071E-001 -4.4001969695E-001 +8.6665076017E-001 -4.4085508585E-001 +1.1208172888E-002 -1.8163328990E-002
749125000.000 +1.2404403649E-002 -2.1611521021E-002 +8.5973107815E-001 -4.5400825143E-001 +8.5921752453E-001 -4.5375484228E-001 +1.0374995880E-002 -1.7525555566E-002
774093750.000 +1.3325056992E-002 -2.2973304614E-002 +8.5159945488E-001 -4.6689614654E-001 +8.5149568319E-001 -4.6681255102E-001 +1.0753521696E-002 -1.9101608545E-002
799062500.000 +1.4040720649E-002 -2.2818088531E-002 +8.4427863359E-001 -4.8015743494E-001 +8.4433478117E-001 -4.7960430384E-001 +1.1192637496E-002 -2.0824002102E-002
824031250.000 +1.2520378456E-002 -2.3370821029E-002 +8.3587276936E-001 -4.9338787794E-001 +8.3572757244E-001 -4.9301913381E-001 +9.7759980708E-003 -2.1209636703E-002
849000000.000 +1.1138021015E-002 -2.4404387921E-002 +8.2763189077E-001 -5.0599437952E-001 +8.2745236158E-001 -5.0560355186E-001 +8.6365295574E-003 -2.1497365087E-002
873968750.000 +1.1379815638E-002 -2.5470906869E-002 +8.1890046597E-001 -5.1872885227E-001 +8.1889224052E-001 -5.1847714186E-001 +9.0474803001E-003 -2.2691123188E-002
898937500.000 +1.0907524265E-002 -2.6971720159E-002 +8.1074625254E-001 -5.3044152260E-001 +8.1034266949E-001 -5.3075051308E-001 +8.9346123859E-003 -2.2791873664E-002
923906250.000 +1.0567961261E-002 -2.7810456231E-002 +8.0122238398E-001 -5.4357653856E-001 +8.0126142502E-001 -5.4316270351E-001 +8.1380289048E-003 -2.3646991700E-002
948875000.000 +1.0438065976E-002 -2.7387900278E-002 +7.9227864742E-001 -5.5547618866E-001 +7.9242593050E-001 -5.5526912212E-001 +7.0899170823E-003 -2.5686202571E-002
973843750.000 +9.1272955760E-003 -2.7764014900E-002 +7.8333216906E-001 -5.6788384914E-001 +7.8302460909E-001 -5.6747090816E-001 +6.5537923947E-003 -2.5810165331E-002
998812500.000 +7.6224552467E-003 -2.9884938151E-002 +7.7363288403E-001 -5.7964611053E-001 +7.7323883772E-001 -5.7954877615E-001 +6.1267027631E-003 -2.5185145438E-002
1023781250.000 +8.1079322845E-003 -3.0836515129E-002 +7.6432889700E-001 -5.9145736694E-001 +7.6414126158E-001 -5.9101706743E-001 +6.0417749919E-003 -2.6708278805E-002
1048750000.000 +8.2600992173E-003 -3.0487226322E-002 +7.5442254543E-001 -6.0301911831E-001 +7.5412750244E-001 -6.0249596834E-001 +5.5300733075E-003 -2.8638796881E-002
1073718750.000 +6.5798112191E-003 -3.0913362280E-002 +7.4473774433E-001 -6.1360538006E-001 +7.4448072910E-001 -6.1387038231E-001 +4.3547176756E-003 -2.8141001239E-002
1098687500.000 +5.5257682689E-003 -3.1802698970E-002 +7.3427021503E-001 -6.2553584576E-001 +7.3386913538E-001 -6.2562888861E-001 +3.4378943965E-003 -2.8345229104E-002
1123656250.000 +5.4386407137E-003 -3.2071217895E-002 +7.2400027514E-001 -6.3642066717E-001 +7.2441977262E-001 -6.3614130020E-001 +3.2426661346E-003 -2.9371321201E-002
1148625000.000 +4.5632794499E-003 -3.3095747232E-002 +7.1377474070E-001 -6.4742755890E-001 +7.1364682913E-001 -6.4710015059E-001 +3.3198543824E-003 -2.9792258516E-002
1173593750.000 +3.9306664839E-003 -3.4022234380E-002 +7.0322120190E-001 -6.5815395117E-001 +7.0312786102E-001 -6.5766179562E-001 +2.2081215866E-003 -3.0308660120E-002
1198562500.000 +3.9256950840E-003 -3.3292990178E-002 +6.9255399704E-001 -6.6876155138E-001 +6.9259792566E-001 -6.6862946749E-001 +9.7027275478E-004 -3.1738754362E-002
1223531250.000 +2.5430272799E-003 -3.3219534904E-002 +6.8174493313E-001 -6.7889243364E-001 +6.8157881498E-001 -6.7866414785E-001 +4.1252074880E-004 -3.1790297478E-002
1248500000.000 +1.0002339259E-003 -3.4957289696E-002 +6.7113822699E-001 -6.8903011084E-001 +6.7071253061E-001 -6.8919384480E-001 +5.2602327196E-004 -3.1000398099E-002
1273468750.000 +1.3126785634E-003 -3.5707067698E-002 +6.5915638208E-001 -6.9897013903E-001 +6.5929812193E-001 -6.9881743193E-001 -2.0603496523E-004 -3.2353352755E-002
1298437500.000 +1.3116110349E-003 -3.4854073077E-002 +6.4832121134E-001 -7.0912295580E-001 +6.4820158482E-001 -7.0885324478E-001 -1.1659010779E-003 -3.3669095486E-002
1323406250.000 -5.1140745200E-005 -3.5162668675E-002 +6.3637036085E-001 -7.1884894371E-001 +6.3640391827E-001 -7.1829211712E-001 -1.6866335645E-003 -3.3448785543E-002
1348375000.000 -1.1722645722E-003 -3.5439632833E-002 +6.2517458200E-001 -7.2775042057E-001 +6.2539541721E-001 -7.2762542963E-001 -2.5577160995E-003 -3.3175211400E-002
1373343750.000 -1.5400744742E-003 -3.5387981683E-002 +6.1268341541E-001 -7.3790323734E-001 +6.1333841085E-001 -7.3724651337E-001 -3.0107474886E-003 -3.3847071230E-002
1398312500.000 -2.2248851601E-003 -3.6251172423E-002 +6.0192656517E-001 -7.4530857801E-001 +6.0170024633E-001 -7.4579167366E-001 -2.9991280753E-003 -3.4227512777E-002
1423281250.000 -2.3725267965E-003 -3.6980733275E-002 +5.8914369345E-001 -7.5593376160E-001 +5.9020376205E-001 -7.5464695692E-001 -3.5975463688E-003 -3.4562341869E-002
1448250000.000 -2.5771874934E-003 -3.5715483129E-002 +5.7691359520E-001 -7.6398074627E-001 +5.7760155201E-001 -7.6338630915E-001 -5.2800467238E-003 -3.5454351455E-002
1473218750.000 -4.1423244402E-003 -3.5303078592E-002 +5.6527662277E-001 -7.7229398489E-001 +5.6540000439E-001 -7.7197450399E-001 -5.8404835872E-003 -3.5256169736E-002
1498187500.000 -5.2772788331E-003 -3.6841802299E-002 +5.5240422487E-001 -7.8086799383E-001 +5.5261510611E-001 -7.8038644791E-001 -5.1533076912E-003 -3.4667346627E-002
1523156250.000 -4.8853899352E-003 -3.7371713668E-002 +5.4101419449E-001 -7.8845578432E-001 +5.4089826345E-001 -7.8841137886E-001 -5.5895368569E-003 -3.5274118185E-002
1548125000.000 -4.5754439197E-003 -3.6318413913E-002 +5.2815085649E-001 -7.9694223404E-001 +5.2785259485E-001 -7.9612630606E-001 -6.9123646244E-003 -3.6466240883E-002
1573093750.000 -6.0085491277E-003 -3.6311056465E-002 +5.1553076506E-001 -8.0433571339E-001 +5.1567548513E-001 -8.0394810438E-001 -7.3358267546E-003 -3.6161590368E-002
1598062500.000 -6.7744068801E-003 -3.6492876709E-002 +5.0230193138E-001 -8.1211405993E-001 +5.0300973654E-001 -8.1108021736E-001 -7.7509391122E-003 -3.5634100437E-002
1623031250.000 -7.1906610392E-003 -3.6245539784E-002 +4.8989245296E-001 -8.1904995441E-001 +4.8990592360E-001 -8.1854254007E-001 -8.4325280041E-003 -3.5716101527E-002
1648000000.000 -7.4691288173E-003 -3.6958206445E-002 +4.7671586275E-001 -8.2626229525E-001 +4.7701135278E-001 -8.2589995861E-001 -8.3820577711E-003 -3.6191936582E-002
1672968750.000 -7.4274810031E-003 -3.7398099899E-002 +4.6369224787E-001 -8.3310478926E-001 +4.6400788426E-001 -8.3283364773E-001 -8.6340429261E-003 -3.6323904991E-002
1697937500.000 -7.5698993169E-003 -3.6010768265E-002 +4.4994300604E-001 -8.4049737453E-001 +4.5067974925E-001 -8.3965957165E-001 -1.0278576985E-002 -3.6384996027E-002
1722906250.000 -9.0144854039E-003 -3.5317201167E-002 +4.3683615327E-001 -8.4588128328E-001 +4.3726149201E-001 -8.4535348415E-001 -1.0675354861E-002 -3.6037724465E-002
1747875000.000 -9.8765157163E-003 -3.6693438888E-002 +4.2421880364E-001 -8.5260403156E-001 +4.2442122102E-001 -8.5207074881E-001 -9.8735149950E-003 -3.5812746733E-002
1772843750.000 -9.1883074492E-003 -3.7085872144E-002 +4.1010308266E-001 -8.5834437609E-001 +4.1066569090E-001 -8.5795837641E-001 -1.0081697255E-002 -3.5960022360E-002
1797812500.000 -8.7461154908E-003 -3.5872153938E-002 +3.9757075906E-001 -8.6425328255E-001 +3.9779913425E-001 -8.6378902197E-001 -1.1386582628E-002 -3.6360561848E-002
1822781250.000 -9.7489263862E-003 -3.5876225680E-002 +3.8324126601E-001 -8.7047189474E-001 +3.8360351324E-001 -8.6972987652E-001 -1.1618793011E-002 -3.6304470152E-002
1847750000.000 -1.0581896640E-002 -3.5838548094E-002 +3.6987096071E-001 -8.7487995625E-001 +3.7007701397E-001 -8.7448537350E-001 -1.1754303239E-002 -3.5483688116E-002
1872718750.000 -1.1019604281E-002 -3.5504478961E-002 +3.5632389784E-001 -8.8116282225E-001 +3.5646939278E-001 -8.8046157360E-001 -1.2318149209E-002 -3.5345707089E-002
1897687500.000 -1.0841184296E-002 -3.6299195141E-002 +3.4212327003E-001 -8.8499993086E-001 +3.4346422553E-001 -8.8490879536E-001 -1.1971034110E-002 -3.5791512579E-002
1922656250.000 -1.0371739976E-002 -3.6612592638E-002 +3.2916352153E-001 -8.9080250263E-001 +3.2899698615E-001 -8.9061540365E-001 -1.1810110882E-002 -3.5862773657E-002
1947625000.000 -1.0367268696E-002 -3.5245165229E-002 +3.1448468566E-001 -8.9530301094E-001 +3.1478086114E-001 -8.9458811283E-001 -1.3258659281E-002 -3.5239830613E-002
1972593750.000 -1.1722585186E-002 -3.4440636635E-002 +3.0089041591E-001 -8.9960575104E-001 +3.0113777518E-001 -8.9926296473E-001 -1.3588973321E-002 -3.4727104008E-002
1997562500.000 -1.2395793572E-002 -3.5683836788E-002 +2.8630936146E-001 -9.0370291471E-001 +2.8667291999E-001 -9.0337103605E-001 -1.2599975802E-002 -3.4878779203E-002
2022531250.000 -1.1499729939E-002 -3.6196239293E-002 +2.7303740382E-001 -9.0702939034E-001 +2.7292206883E-001 -9.0716314316E-001 -1.2657970190E-002 -3.4825917333E-002
2047500000.000 -1.0909031145E-002 -3.5322953016E-002 +2.5847625732E-001 -9.1167688370E-001 +2.5853291154E-001 -9.1109001637E-001 -1.3726058416E-002 -3.4855816513E-002
2072468750.000 -1.1694729328E-002 -3.4926895052E-002 +2.4347092211E-001 -9.1531074047E-001 +2.4453434348E-001 -9.1449832916E-001 -1.3759806752E-002 -3.4662861377E-002
2097437500.000 -1.2371822260E-002 -3.5072416067E-002 +2.2934660316E-001 -9.1812753677E-001 +2.3047536612E-001 -9.1760742664E-001 -1.3737509958E-002 -3.3899053931E-002
2122406250.000 -1.2840938754E-002 -3.4625057131E-002 +2.1543140709E-001 -9.2089247704E-001 +2.1606574953E-001 -9.2064839602E-001 -1.4158651233E-002 -3.3084388822E-002
2147375000.000 -1.2682876550E-002 -3.5156287253E-002 +2.0146580040E-001 -9.2350530624E-001 +2.0150746405E-001 -9.2369323969E-001 -1.3848759234E-002 -3.3704228699E-002
2172343750.000 -1.1852919124E-002 -3.5649027675E-002 +1.8709276617E-001 -9.2615371943E-001 +1.8719708920E-001 -9.2621797323E-001 -1.3646370731E-002 -3.3677451313E-002
2197312500.000 -1.1587509885E-002 -3.4550376236E-002 +1.7237767577E-001 -9.2932033539E-001 +1.7293269932E-001 -9.2880040407E-001 -1.4221153222E-002 -3.2682828605E-002
2222281250.000 -1.2661921792E-002 -3.3502735198E-002 +1.5744291246E-001 -9.3090671301E-001 +1.5808400512E-001 -9.3061220646E-001 -1.4477424324E-002 -3.1727988273E-002
2247250000.000 -1.3507003896E-002 -3.4499507397E-002 +1.4362011850E-001 -9.3290019035E-001 +1.4402836561E-001 -9.3268477917E-001 -1.3635625131E-002 -3.1932510436E-002
2272218750.000 -1.2281743810E-002 -3.5096097738E-002 +1.2888756394E-001 -9.3417233229E-001 +1.2945769727E-001 -9.3386793137E-001 -1.3511513360E-002 -3.2309070230E-002
2297187500.000 -1.1716118082E-002 -3.4450504929E-002 +1.1499127746E-001 -9.3598514795E-001 +1.1527021974E-001 -9.3599718809E-001 -1.3740976341E-002 -3.1430631876E-002
2322156250.000 -1.1678559706E-002 -3.4108377993E-002 +1.0011925548E-001 -9.3752789497E-001 +1.0033805668E-001 -9.3712759018E-001 -1.3487148099E-002 -3.1074021012E-002
2347125000.000 -1.2133757584E-002 -3.4085299820E-002 +8.5393615067E-002 -9.3843436241E-001 +8.5923358798E-002 -9.3821680546E-001 -1.3227322139E-002 -3.0666319653E-002
2372093750.000 -1.2572778389E-002 -3.3565726131E-002 +7.0998750627E-002 -9.3907272816E-001 +7.0950947702E-002 -9.3916749954E-001 -1.3168152422E-002 -2.9857214540E-002
2397062500.000 -1.2614739127E-002 -3.4300290048E-002 +5.6425351650E-002 -9.3940752745E-001 +5.6547310203E-002 -9.3929511309E-001 -1.2977016158E-002 -3.0119255185E-002
2422031250.000 -1.1453654617E-002 -3.5187106580E-002 +4.2147990316E-002 -9.3979799747E-001 +4.2539127171E-002 -9.3980717659E-001 -1.2543601915E-002 -3.0479498208E-002
2447000000.000 -1.0744430125E-002 -3.4097399563E-002 +2.7776449919E-002 -9.4009011984E-001 +2.8416063637E-002 -9.3968003988E-001 -1.2311678380E-002 -2.9361486435E-002
2471968750.000 -1.1734989472E-002 -3.3020466566E-002 +1.2607109733E-002 -9.4062405825E-001 +1.3417884707E-002 -9.3981289864E-001 -1.2012408115E-002 -2.8450578451E-002
2496937500.000 -1.2417315505E-002 -3.4197408706E-002 -1.5872898512E-003 -9.3890374899E-001 -5.9609336313E-004 -9.3920552731E-001 -1.1899486184E-002 -2.9044676572E-002
2521906250.000 -1.1513501406E-002 -3.4740645438E-002 -1.5863833949E-002 -9.3903273344E-001 -1.5146274120E-002 -9.3903779984E-001 -1.1539611034E-002 -2.9012134299E-002
2546875000.000 -1.0676340200E-002 -3.4364085644E-002 -3.0315961689E-002 -9.3771559000E-001 -2.9496561736E-002 -9.3808978796E-001 -1.1338057928E-002 -2.8336144984E-002
2571843750.000 -1.0589646176E-002 -3.4135874361E-002 -4.4093713164E-002 -9.3722850084E-001 -4.3743327260E-002 -9.3746024370E-001 -1.0909591801E-002 -2.8069809079E-002
2596812500.000 -1.0501516052E-002 -3.4261677414E-002 -5.9558250010E-002 -9.3587613106E-001 -5.8719698340E-002 -9.3625783920E-001 -1.0568523780E-002 -2.7744656429E-002
2621781250.000 -1.1260642670E-002 -3.3816043288E-002 -7.2634451091E-002 -9.3439340591E-001 -7.2190962732E-002 -9.3470382690E-001 -1.0200072080E-002 -2.7039458975E-002
2646750000.000 -1.1427909136E-002 -3.4428711981E-002 -8.8301099837E-002 -9.3294143677E-001 -8.7469421327E-002 -9.3304705620E-001 -9.9782608449E-003 -2.7190994471E-002
2671718750.000 -1.0372187011E-002 -3.5539247096E-002 -1.0089939088E-001 -9.3012481928E-001 -1.0080587119E-001 -9.3092519045E-001 -1.0071574710E-002 -2.7640393004E-002
2696687500.000 -9.3755889684E-003 -3.4548725933E-002 -1.1618595570E-001 -9.2995178699E-001 -1.1549638212E-001 -9.2937511206E-001 -9.0445550159E-003 -2.6751134545E-002
2721656250.000 -1.0135639459E-002 -3.3552795649E-002 -1.3057069480E-001 -9.2619913816E-001 -1.2946900725E-001 -9.2681044340E-001 -8.4341960028E-003 -2.5956762955E-002
2746625000.000 -1.0651943274E-002 -3.4607302397E-002 -1.4363567531E-001 -9.2488121986E-001 -1.4357361197E-001 -9.2495018244E-001 -8.1941289827E-003 -2.6288982481E-002
2771593750.000 -9.8950657994E-003 -3.5374671221E-002 -1.5949176252E-001 -9.2139172554E-001 -1.5817317367E-001 -9.2166101933E-001 -7.9779392108E-003 -2.6647420600E-002
2796562500.000 -9.3274526298E-003 -3.4850548953E-002 -1.7165791988E-001 -9.1836607456E-001 -1.7167882621E-001 -9.1953271627E-001 -7.4205487035E-003 -2.5892335922E-002
2821531250.000 -9.0412516147E-003 -3.4999705851E-002 -1.8659423292E-001 -9.1590547562E-001 -1.8595610559E-001 -9.1586714983E-001 -7.0359474048E-003 -2.5667877868E-002
2846500000.000 -8.6960336193E-003 -3.5096030682E-002 -2.0052389801E-001 -9.1265136003E-001 -2.0002393425E-001 -9.1302788258E-001 -6.0507529415E-003 -2.5583185256E-002
2871468750.000 -9.1087417677E-003 -3.4641489387E-002 -2.1432138979E-001 -9.0881735086E-001 -2.1394671500E-001 -9.0941387415E-001 -5.3864121437E-003 -2.5132445619E-002
2896437500.000 -9.4696683809E-003 -3.5208813846E-002 -2.2826561332E-001 -9.0478724241E-001 -2.2779683769E-001 -9.0553480387E-001 -5.4463855922E-003 -2.5221614167E-002
2921406250.000 -8.2796420902E-003 -3.6234632134E-002 -2.4164867401E-001 -9.0117216110E-001 -2.4174503982E-001 -9.0157675743E-001 -5.4597239941E-003 -2.5513689965E-002
2946375000.000 -7.3269228451E-003 -3.5506762564E-002 -2.5573581457E-001 -8.9664232731E-001 -2.5511234999E-001 -8.9711236954E-001 -4.3345442973E-003 -2.5090318173E-002
2971343750.000 -8.0414675176E-003 -3.4788381308E-002 -2.6916944981E-001 -8.9293390512E-001 -2.6920023561E-001 -8.9301532507E-001 -3.1707945745E-003 -2.4723656476E-002
