!Created with skrf (http://scikit-rf.org).
# Hz S RI R 50.0 
!freq ReS11 ImS11 ReS12 ImS12 ReS13 ImS13
! ReS21 ImS21 ReS22 ImS22 ReS23 ImS23
! ReS31 ImS31 ReS32 ImS32 ReS33 ImS33
!
50000000.0 0.9999766768628245 0.0010544875429426572 5.159692697258825e-07 1.8618776292145495e-05 -1.0414340275206845e-07 6.336523249058908e-06
 7.701153569594203e-07 1.8019012548838428e-05 0.9999852592442219 0.0008902161522916715 2.1339477916605017e-07 5.005456318031638e-06
 -2.359823681567931e-08 8.753501489265454e-06 1.9077331588367457e-07 7.028625413379558e-06 0.998909689211769 0.0010313308712004096
97474747.47474748 0.9999724970485467 0.0027113424963286547 4.993486404245443e-07 1.0986307497397499e-05 -1.0818571701121753e-07 3.3433867113490875e-06
 7.565093624003931e-07 1.0312417962012575e-05 0.999983072646138 0.002084489594722669 1.9183583741954835e-07 8.103077253191444e-06
 -2.9564428964542768e-08 4.556941620820017e-06 1.734108644030336e-07 8.413517531818667e-06 0.9989075706930697 0.002371256338894669
144949494.94949496 0.9999652032095812 0.004222319345688749 4.889226966875946e-07 8.974959732713118e-06 -1.092100006595112e-07 2.351131677164549e-06
 7.484989002322393e-07 8.116942844151021e-06 0.9999792286745164 0.0032010254733061804 1.5860414345747418e-07 1.1567319310891558e-05
 -3.101775052921414e-08 3.13816952372942e-06 1.4847832720479132e-07 1.0972774249947115e-05 0.998903847877731 0.003630805717117859
192424242.4242424 0.9999550465629964 0.005695732218982736 4.768108770719682e-07 8.42480828966426e-06 -1.0983174536274187e-07 1.8789313673901735e-06
 7.393701310130017e-07 7.3539432875492086e-06 0.9999738832616561 0.00429764608882141 1.129214904935074e-07 1.5127945488718394e-05
 -3.1863408811881824e-08 2.441306834785939e-06 1.1434142242152845e-07 1.3837600472987217e-05 0.9988986918640932 0.00486980242775948
239898989.8989899 0.9999419790761149 0.007153731751644876 4.6191211264729095e-07 8.468419342218033e-06 -1.1042862752826624e-07 1.6179998453212137e-06
 7.28228816442513e-07 7.173024204898704e-06 0.999966993792334 0.005386034946415907 5.4333458730717544e-08 1.872711075802924e-05
 -3.261316600786645e-08 2.0377829546180596e-06 7.061872220918704e-08 1.6826411287164995e-05 0.9988920480954655 0.006100340786074178
287373737.37373734 0.9999260614661826 0.00860386830827926 4.440060659481202e-07 8.811681281772254e-06 -1.1105754647368485e-07 1.4637070487404379e-06
 7.148600230219268e-07 7.285925124293892e-06 0.9999586051195496 0.006470215504329089 -1.6990588761427954e-08 2.234568118051284e-05
 -3.341479145917723e-08 1.7822083925973099e-06 1.746894718212474e-08 1.9877536632061565e-05 0.9988839531123984 0.007326524197309303
334848484.8484848 0.9999072799641974 0.01004952393249267 4.2301354100678273e-07 9.327447109572116e-06 -1.1175445877887617e-07 1.3707259352698903e-06
 6.991937368363155e-07 7.5679378199499086e-06 0.9999487094759343 0.007552017115282175 -1.0111232133845974e-07 2.5975314578609457e-05
 -3.4289913504556695e-08 1.6117272678401212e-06 -4.5129638765287106e-08 2.2964724727492295e-05 0.9988744075658523 0.008550283146666827
382323232.3232323 0.9998855960634315 0.011492408343164067 3.988283134504476e-07 9.951715720791112e-06 -1.1255728248484088e-07 1.3162509645313008e-06
 6.811859568882328e-07 7.956186134604112e-06 0.9999372796133673 0.008632324954951679 -1.9814591957346376e-07 2.9611979317213276e-05
 -3.528218790995891e-08 1.494665868392411e-06 -1.1747508718195035e-07 2.6074426717925116e-05 0.998863376383675 0.009772529988427007
429797979.7979798 0.9998610896536796 0.012933393734357385 3.715208829556043e-07 1.064879537320601e-05 -1.1344610945612942e-07 1.2875722330065646e-06
 6.608422859341715e-07 8.415756972975584e-06 0.9999243672585035 0.009711635812492351 -3.0787439746899926e-07 3.325340205337557e-05
 -3.6376411577342166e-08 1.4133652024901903e-06 -1.991424755420849e-07 2.9199195451349878e-05 0.9988509190359456 0.010993771891689031
477272727.27272725 0.9998337092994615 0.01437302806918047 3.4103022490486136e-07 1.1397161298005298e-05 -1.1443944321346322e-07 1.2770259134756716e-06
 6.381676831884828e-07 8.925579992208217e-06 0.9999099503670102 0.010790214506284665 -4.3032060695058027e-07 3.6897921916016376e-05
 -3.7590703788379466e-08 1.3571874177637534e-06 -2.9032603480786047e-07 3.233458065751191e-05 0.9988370007613913 0.012214283937881284
524747474.74747473 0.9998034433057847 0.01581167534946914 3.0730895020468664e-07 1.2183198393154969e-05 -1.155463997802295e-07 1.2797389014189376e-06
 6.130509944307029e-07 9.472246920500338e-06 0.9998939980529945 0.011868252161920407 -5.657003892885537e-07 4.054473335984718e-05
 -3.893008146764856e-08 1.3193521449637088e-06 -3.9105223253548364e-07 3.54776933918392e-05 0.9988216164238458 0.013434291657488802
572222222.2222222 0.9997702884601923 0.017249557963632464 2.703976308992938e-07 1.299776882389985e-05 -1.1675707973880756e-07 1.292456308908903e-06
 5.855734041170235e-07 1.0046771832134533e-05 0.9998765314281225 0.01294587716796438 -7.13854770924929e-07 4.419315533400148e-05
 -4.039241543855754e-08 1.295325369246002e-06 -5.013652838798477e-07 3.8626563675486474e-05 0.99880474610161 0.014653904718366287
619696969.6969696 0.9997343141489119 0.01868685250761617 2.3030470867315852e-07 1.3834597279681976e-05 -1.1807919002245847e-07 1.3129207094797074e-06
 5.557497436072188e-07 1.0643039610540384e-05 0.9998575862640673 0.014023179501872853 -8.746258619334496e-07 4.78428970741077e-05
 -4.1975720191316455e-08 1.2819806084011405e-06 -6.210355826771905e-07 4.1779929551055555e-05 0.9987864508642265 0.015873236573204073
667171717.1717172 0.999695426855536 0.020123639134729317 1.8696333938975545e-07 1.4689176858658387e-05 -1.1952216795163196e-07 1.3395214198791414e-06
 5.235105160362503e-07 1.1256549716592452e-05 0.9998370973526232 0.015100199852043545 -1.0482795440890879e-06 5.149349706291534e-05
 -4.3699748628854e-08 1.2770736021297997e-06 -7.502604534634898e-07 4.4936814546594675e-05 0.9987666704494226 0.017092319838172932
714646464.6464646 0.999653676133926 0.02156003607300154 1.404014809464014e-07 1.5558245052295688e-05 -1.2108004388119486e-07 1.371088257375071e-06
 4.888925297693339e-07 1.1884194770632943e-05 0.9998151041994023 0.016176994688044004 -1.234639325962284e-06 5.514485146552896e-05
 -4.553976400457987e-08 1.2789513374892642e-06 -8.888776371855557e-07 4.809648012029331e-05 0.9987454164273221 0.018311233629828914
762121212.1212121 0.99960908055842 0.02299611707690965 9.06390224451125e-08 1.6439392517057217e-05 -1.227569256916153e-07 1.4067298685201125e-06
 4.5190042861254086e-07 1.252351927059501e-05 0.9997916213601428 0.017253617981899706 -1.4336573863233412e-06 5.879674087241017e-05
 -4.751331419115259e-08 1.2864097473464436e-06 -1.0368909730906047e-06 5.125859727112316e-05 0.9987227284506041 0.019530028504897663
809595959.5959595 0.9995616218719076 0.024431880684403294 3.7652571796412695e-08 1.733072714532941e-05 -1.245574303917605e-07 1.445786397418232e-06
 4.1253552853072484e-07 1.317272975535427e-05 0.9997666374065841 0.01833005068867111 -1.645364777362278e-06 6.24490273457899e-05
 -4.962001219802183e-08 1.2984896624524159e-06 -1.1942960869546035e-06 5.4422518368133874e-05 0.9986985822963045 0.020748672744404145
857070707.070707 0.9995112702838813 0.02586741698938071 -1.8595928208566302e-08 1.8230857979657417e-05 -1.2649231157872127e-07 1.4877250788529756e-06
 3.707391033043878e-07 1.3830394258963521e-05 0.9997401243122906 0.019406357378888957 -1.8697726880456152e-06 6.610167714612415e-05
 -5.185893254886964e-08 1.3144698608252706e-06 -1.3611343879737765e-06 5.758818124548313e-05 0.9986729474131106 0.021967262810203173
904545454.5454545 0.9994580209353465 0.027302709380391716 -7.81136246871701e-08 1.9138647296121877e-05 -1.2855974053698206e-07 1.532148290426003e-06
 3.265395693631915e-07 1.4495422642745657e-05 0.9997120855292944 0.020482512002870927 -2.1069509114885464e-06 6.975451884424522e-05
 -5.423335465641098e-08 1.3337734722413806e-06 -1.5374224739734886e-06 6.07551611446755e-05 0.9986458300143336 0.02318576098427609
952020202.0202019 0.9994019839397827 0.02873778666576044 -1.4080805964234344e-07 2.0053210987585024e-05 -1.307557095815523e-07 1.5787259111427597e-06
 2.800254912093394e-07 1.5166929333465236e-05 0.9996825984284985 0.021558538943504273 -2.356531578637038e-06 7.340752179346779e-05
 -5.6733649908138745e-08 1.3559456273309536e-06 -1.7228526551129586e-06 6.392336426504444e-05 0.9986173115952736 0.024404199843857458
999494949.4949495 0.9993430059376862 0.030172693891725326 -2.0683284320499428e-07 2.0973884085262762e-05 -1.3309408571288726e-07 1.6271973197060326e-06
 2.310285320857263e-07 1.5844257604592293e-05 0.9996515456601957 0.02263445966270626 -2.6189369994602253e-06 7.706066532911092e-05
 -5.9379574996105514e-08 1.38062440638361e-06 -1.917785264905062e-06 6.70926788668098e-05 0.998587257551978 0.02562260625297159
1046969696.9696969 0.9992811762637116 0.03160738377191284 -2.7611410696409626e-07 2.1900058857295072e-05 -1.3558015838493528e-07 1.6773534569199802e-06
 1.7965217097850917e-07 1.6526813045947327e-05 0.9996190036905903 0.02371024525532558 -2.893890900246324e-06 8.071381011259988e-05
 -6.216417573234331e-08 1.4075038429564984e-06 -2.1220021432994e-06 7.026283526663522e-05 0.9985557557523914 0.026840939194618666
1094444444.4444444 0.99921646759289 0.03304193692200138 -3.486717292384609e-07 2.283134251547785e-05 -1.3820953915384912e-07 1.7290314261426149e-06
 1.258710932301341e-07 1.7214168687972148e-05 0.9995849483280792 0.024785940129083504 -3.18143439007589e-06 8.436707608919843e-05
 -6.508183905997164e-08 1.4363430683440636e-06 -2.335521355471985e-06 7.34339708695183e-05 0.9985227768076936 0.028059284715009
1141919191.9191918 0.9991489183412924 0.03447632794750833 -4.2448397302958364e-07 2.376733461338779e-05 -1.4098710412172805e-07 1.78207505878541e-06
 6.970455546690305e-08 1.790595534424507e-05 0.9995494109065713 0.0258615402861655 -3.4814848762214684e-06 8.802039215006459e-05
 -6.814241803190746e-08 1.4669386522506408e-06 -2.5582188586669363e-06 7.660587028411138e-05 0.9984883570289328 0.029277596939545722
1189393939.3939393 0.9990784750107927 0.03591057175442911 -5.036217276760933e-07 2.470774837972394e-05 -1.439277781040397e-07 1.8363807491766128e-06
 1.1098187151057508e-08 1.8601887271366524e-05 0.9995123518622321 0.02693703069748622 -3.7941358137710783e-06 9.167368364604455e-05
 -7.134939595563288e-08 1.4991278332596247e-06 -2.7902238022702875e-06 7.977849921865877e-05 0.99845244303683 0.030495894500969265
1236868686.8686867 0.9990051854903261 0.037344635720621085 -5.860309916647658e-07 2.5652312099688962e-05 -1.470248031655994e-07 1.8918413365371697e-06
 -4.9906065878773814e-08 1.9301674873364848e-05 0.9994738027558321 0.028012409710100085 -4.119251274594058e-06 9.532690798144326e-05
 -7.469472218970423e-08 1.5327528538087438e-06 -3.0313930616568626e-06 8.295182200012771e-05 0.998415077333141 0.03171416162884748
1284343434.3434343 0.9989289893437133 0.03877857366244195 -6.717885556482912e-07 2.6600867096999297e-05 -1.5029381507641198e-07 1.9483839677143967e-06
 -1.1334651374340295e-07 2.0005152670965665e-05 0.9994337259653765 0.02908770168546043 -4.456952602495064e-06 9.898019254731601e-05
 -7.819188246001659e-08 1.567717293017692e-06 -3.281880790160553e-06 8.612581770904209e-05 0.9983762065097722 0.03293244510051218
1331818181.8181818 0.9988499181474525 0.040212350579340334 -7.608701076359198e-07 2.755322600650559e-05 -1.537334464558787e-07 2.0059349229285543e-06
 -1.792033018101926e-07 2.0712142354064376e-05 0.9993921411894439 0.03016288498321519 -4.807143207168813e-06 0.00010263338728300915
 -8.183670163426757e-08 1.603915223107205e-06 -3.541539060647327e-06 8.930046673141177e-05 0.9983358589252015 0.03415070394012431
1379292929.2929292 0.998768001784911 0.041646017981555206 -8.532562039047043e-07 2.8509291492240658e-05 -1.573466519940002e-07 2.064450119871846e-06
 -2.474840531255957e-07 2.1422527622466997e-05 0.9993490732257622 0.03123799794712802 -5.169743174934382e-06 0.00010628667719921926
 -8.563132027218065e-08 1.6412583066586992e-06 -3.8102913657984417e-06 9.247579188941294e-05 0.9982940561689694 0.035369001034256484
1426767676.7676766 0.9986832155727037 0.04307952488767984 -9.489828375279229e-07 2.946891590066643e-05 -1.6114036727168588e-07 2.1238772473474413e-06
 -3.181810383836707e-07 2.213617274163049e-05 0.9993045058074369 0.032312994620163196 -5.544769325242613e-06 0.00010993988971142044
 -8.957841857397669e-08 1.6796837183363153e-06 -4.088190446485803e-06 9.56517174354171e-05 0.9982507813331681 0.03658727173255533
1474242424.2424242 0.9985955255616726 0.04451288911809783 -1.0480922655525924e-06 3.0432037013064064e-05 -1.6512891662007598e-07 2.184176351046405e-06
 -3.9133663820128493e-07 2.2852996192973565e-05 0.9992584111688924 0.03338789584522095 -5.932315589273012e-06 0.0001135931160582598
 -9.368570103798989e-08 1.7191180550015074e-06 -4.375284151998784e-06 9.882829102180051e-05 0.9982060029612141 0.037805568573368156
1521717171.7171717 0.9985049783772271 0.04594612474119138 -1.150542649420156e-06 3.13985828467957e-05 -1.6930633254119794e-07 2.2453105774004383e-06
 -4.6692378746432215e-07 2.357293796334504e-05 0.9992108278883908 0.034462705397509806 -6.332223373847501e-06 0.00011724631943612261
 -9.794534270925191e-08 1.7595225839071718e-06 -4.671447332816092e-06 0.00010200550400880067 0.9981597544739276 0.039023865684736404
1569191919.191919 0.9984115924827517 0.0473792242458614 -1.2563391944760357e-06 3.2368505526204325e-05 -1.7367931835256605e-07 2.3072656893799915e-06
 -5.449223172587456e-07 2.429590353376153e-05 0.9991617659081196 0.03553742360768273 -6.744429837112792e-06 0.00012089961488374763
 -1.0236555666616816e-07 1.800847788318253e-06 -4.976631295247158e-06 0.0001051834354553476 0.9981120531193521 0.04024218911381172
1616666666.6666665 0.9983152748518658 0.04881216799628589 -1.365577704232029e-06 3.3341747665518274e-05 -1.7826851288333611e-07 2.3700069544366393e-06
 -6.254010450998698e-07 2.5021862231585307e-05 0.9991111600704402 0.03661203580067587 -7.16917542163256e-06 0.0001245529001968834
 -1.0695707560952085e-07 1.843062784706644e-06 -5.291024858520578e-06 0.0001083620087740497 0.9980628222598779 0.04146051915646493
1664141414.141414 0.9982161170711819 0.05024497362224076 -1.4781756305821842e-06 3.431827518960501e-05 -1.8306079600426484e-07 2.433522741901476e-06
 -7.083114915616265e-07 2.5750787998751688e-05 0.9990590803467893 0.03768654181589364 -7.60619409258016e-06 0.00012820621677673666
 -1.1170827463949618e-07 1.886125087936699e-06 -5.614395478573663e-06 0.00011154125279849483 0.9980121358031985 0.04267886044667882
1711616161.6161616 0.9981140848581299 0.051677639712554777 -1.594179285341215e-06 3.5298091491016985e-05 -1.8807464100145824e-07 2.4977975092868572e-06
 -7.936803325183132e-07 2.6482650006006703e-05 0.9990055038646403 0.03876095733863108 -8.055550564597415e-06 0.00013185958826106536
 -1.166323409620352e-07 1.930020718591852e-06 -5.946785483244908e-06 0.00011472127764920308 0.9979599642541328 0.04389722768994497
1759090909.090909 0.9980091367864583 0.053110151982917284 -1.713654795936841e-06 3.628116083199174e-05 -1.9332015916250818e-07 2.562822129798701e-06
 -8.815376246920929e-07 2.7217409884940493e-05 0.9989503930408051 0.03983526639271221 -8.517370556010215e-06 0.00013551306744078383
 -1.217319853134663e-07 1.9747221401164185e-06 -6.288323615524079e-06 0.00011790201608422034 0.997906272579325 0.04511561441620913
1806565656.5656564 0.9979013617615582 0.05454253647535889 -1.8365026376595164e-06 3.7267494019316605e-05 -1.9878960017116972e-07 2.6285889038585668e-06
 -9.718182775761631e-07 2.795508161242795e-05 0.9988938261684106 0.04090948706050153 -8.991370809732442e-06 0.0001391667192382522
 -1.270064954712978e-07 2.0202060922057547e-06 -6.638754263196931e-06 0.00012108356496852096 0.9978511366044801 0.04633403800985262
1854040404.0404038 0.997790735525993 0.05597476059355483 -1.962781535107269e-06 3.8257063233669104e-05 -2.0450045335653707e-07 2.6950880876455165e-06
 -1.0645418823818518e-06 2.8695624643811233e-05 0.9988357705359905 0.041983591412249784 -9.477649195503115e-06 0.00014282042765187622
 -1.3245860193482192e-07 2.066468939171432e-06 -6.998162153141628e-06 0.00012426590720751566 0.9977945204931395 0.047552468668579526
1901515151.5151515 0.9976771587300577 0.057406829871380814 -2.0925813305814715e-06 3.924988799667358e-05 -2.1046321522554156e-07 2.7623178192635896e-06
 -1.1598079255883776e-06 2.9439048084924674e-05 0.9987761678677525 0.04305758835209083 -9.976396454176929e-06 0.00014647428786837235
 -1.3810280166631513e-07 2.113490303598202e-06 -7.366721540483111e-06 0.00012744908958400015 0.9977363637133561 0.048770922127757
1948989898.989899 0.9975607508118229 0.05883876149377725 -2.22580912390665e-06 4.024596458504713e-05 -2.1667434181617238e-07 2.8302749190612744e-06
 -1.2574980924674841e-06 3.01853607826048e-05 0.9987151000742964 0.04413148662957412 -1.0487320273776527e-05 0.00015012838319508905
 -1.4392973565919348e-07 2.161260281089174e-06 -7.744153890026718e-06 0.00013063318989204993 0.9976767408038504 0.04998941477251315
1996464646.4646463 0.997441449735168 0.06027053715929618 -2.3625376928846062e-06 4.124531645095968e-05 -2.231493278380048e-07 2.8989601956063297e-06
 -1.3577087893593899e-06 3.093454298951581e-05 0.9986525254810553 0.045205280230355666 -1.1010595092621088e-05 0.00015378271582503508
 -1.499537831576158e-07 2.2097770148750044e-06 -8.130619508938401e-06 0.00013381819650743002 0.9976156185017842 0.051207934673301335
2043939393.9393938 0.9973192741088249 0.06170217230686296 -2.502762978439457e-06 4.2247954485465184e-05 -2.2989467606685133e-07 2.968373946860086e-06
 -1.4603998337482257e-06 3.1686636860936e-05 0.9985884560977063 0.04627897634944927 -1.1546108865733791e-05 0.00015743727966640908
 -1.561692870353609e-07 2.259029769340668e-06 -8.526053315187686e-06 0.0001370042205841913 0.9975530086913663 0.052426489532831466
2091414141.4141412 0.9971942262812888 0.06313362817891927 -2.6464948529908324e-06 4.3253872511334674e-05 -2.3691745441613364e-07 3.0385201213711383e-06
 -1.5655698174414202e-06 3.2441604456765534e-05 0.9985228947552286 0.04735254263613778 -1.2093940788595469e-05 0.00016109209416517834
 -1.625881015200956e-07 2.3090186830077588e-06 -8.930461188670833e-06 0.00014019122028667157 0.9974888993821441 0.053645056659083284
2138888888.8888888 0.9970663357750038 0.06456493160681588 -2.793722005498566e-06 4.426310681527881e-05 -2.442208677860067e-07 3.109397170545836e-06
 -1.6732125076450726e-06 3.3199481107455515e-05 0.9984558639648373 0.04842601083970605 -1.2653953253618787e-05 0.00016474725081859186
 -1.692125376647026e-07 2.359731957849825e-06 -9.343769406878809e-06 0.00014337930189887342 0.9974233199836403 0.05486366537666228
2186363636.363636 0.9969354866838479 0.06599608896320502 -2.9445571990226827e-06 4.5275672436717354e-05 -2.5182671297566627e-07 3.1810139333841254e-06
 -1.7834283990517537e-06 3.396028470576228e-05 0.9983872833629301 0.04949937221271947 -1.3226426182865428e-05 0.00016840276631369417
 -1.760542752159048e-07 2.4111760222593432e-06 -9.766224492334554e-06 0.00014656850140338373 0.9973561768846115 0.05608231846142844
2233838383.8383837 0.9968018074526943 0.06742705163869309 -3.098894268113723e-06 4.629157523111323e-05 -2.597304052750517e-07 3.253371681982324e-06
 -1.8961227884279285e-06 3.472401485054868e-05 0.9983172463808541 0.05057260455250657 -1.3811066284035891e-05 0.0001720586401551194
 -1.8310526009996e-07 2.463356472914026e-06 -1.019754836584524e-05 0.0001497588134293888 0.9972875787202617 0.057300983804440056
2281313131.3131313 0.996665222266733 0.06885787475934955 -3.2568368936627073e-06 4.7310866885347475e-05 -2.6794652854213943e-07 3.3264805624840504e-06
 -2.011336118320154e-06 3.549069490921425e-05 0.9982456942434156 0.05164573653369558 -1.4408085037839771e-05 0.00017571493444615768
 -1.9038255088593527e-07 2.516267256985901e-06 -1.063791710467285e-05 0.0001529503741697206 0.9972174499071454 0.05851969331724265
