!Created with skrf (http://scikit-rf.org).
# Hz S RI R 50.0 
!freq ReS11 ImS11 ReS12 ImS12 ReS13 ImS13
! ReS21 ImS21 ReS22 ImS22 ReS23 ImS23
! ReS31 ImS31 ReS32 ImS32 ReS33 ImS33
!
50000000.0 0.004550272106921117 -0.018580062151330925 -1.0021893972316598 -0.02508124937926857 -0.0019949167279403085 0.029973903955984846
 -0.9958645761694938 -0.025242355837936534 -0.0028114112317471447 -0.019134709183798473 -0.0014781409621404432 0.02997709455302762
 -0.0016741388558014147 0.02880965800601811 -0.0018642854109145626 0.028898115309164224 -0.9961332844911636 -0.06909402695915723
97474747.47474748 0.007378518022498561 -0.0363447537981027 -0.9994929343611708 -0.04944043758856306 -0.0070163977295370755 0.05791692540166051
 -0.9932522181055613 -0.04974782624672808 -0.00031563842173815663 -0.037438616418320185 -0.005965005617929737 0.057998250399921555
 -0.006598436451103613 0.05586165226039209 -0.005876583726154025 0.05617620373457111 -0.9873604236795508 -0.13376095803070642
144949494.94949496 0.011981995341068918 -0.05350795685227577 -0.995201846575745 -0.07320180599532962 -0.015088273389777036 0.0850623492553529
 -0.9889364357239091 -0.07370076268471214 0.003491013741311477 -0.05525096994225935 -0.01324397231724867 0.08533692801864999
 -0.014440002211575221 0.08196991482403851 -0.013015402768386435 0.08285875769363557 -0.9728175319284735 -0.1971689382134239
192424242.4242424 0.018230283249377623 -0.07003292912365255 -0.9893461713895865 -0.09634598474774614 -0.026100532396868666 0.11105248361429886
 -0.9830446467423012 -0.09699869253185651 0.008666202002595396 -0.07257312122209009 -0.023207161071759574 0.11164899082701467
 -0.025092834640325547 0.10704539127547441 -0.02281575709527173 0.10831628844950571 -0.9528534902310694 -0.2586003701184156
239898989.8989899 0.026084475369468944 -0.08568742074787253 -0.98201588486707 -0.11871152100824582 -0.03986606689137497 0.13554206051691492
 -0.9756700484064814 -0.11953958629982062 0.015176793037252235 -0.08922215268193971 -0.03567226320678007 0.13662353640304267
 -0.038487884888659084 0.13061066955352976 -0.03487468991156492 0.1324341782803629 -0.9278091958874496 -0.31743820227947417
287373737.37373734 0.035330253137396336 -0.10030496485832077 -0.9733489587090437 -0.14016486719422042 -0.056139576290208194 0.15822775849025378
 -0.9669245893194939 -0.14114730322394217 0.022880614769324677 -0.10504287423815789 -0.050413474055637876 0.15999421729031066
 -0.05423333436793559 0.15240737629357323 -0.04911851207828637 0.15514022971681124 -0.8981042629236579 -0.3731376903032009
334848484.8484848 0.04585328127747314 -0.11378387001022615 -0.963474376348595 -0.16059649276769647 -0.07463627570289277 0.17885596436318166
 -0.9569817806925538 -0.1617224552907309 0.031637280574740974 -0.11995520071667476 -0.0671782358970708 0.1815449710134413
 -0.07217372632209292 0.17224830425578486 -0.06545614591581037 0.17609169993469803 -0.8642442251677251 -0.42523484076038953
382323232.3232323 0.05746281377805004 -0.12596785938547878 -0.9525409276251203 -0.17989478654763866 -0.09504109504812797 0.1972292202860955
 -0.9459650983725593 -0.18116703639058748 0.04133733666904404 -0.13387861986497473 -0.08569019090541412 0.2011053081903773
 -0.09194857873170399 0.18983752466120926 -0.08349357459554754 0.19499637244065293 -0.8267890021407605 -0.4733786961034897
429797979.7979798 0.06996126355656233 -0.1368230577593087 -0.9407257923474834 -0.1979930652814138 -0.1170272955101176 0.2132121432060717
 -0.9340599059123479 -0.19940404651535337 0.05183502054087432 -0.1467300418000825 -0.10566701003657138 0.21855534795951678
 -0.11322093719957896 0.20514992454084197 -0.10285684961185546 0.21185839211997182 -0.7863181329673025 -0.5173349824569614
477272727.27272725 0.08320214055202393 -0.146281843245235 -0.9281887485141809 -0.21486407165228444 -0.14026773759732622 0.22672451230216628
 -0.9214145418317626 -0.2164108984893594 0.0629695478555263 -0.15848082953047476 -0.12682256511102613 0.23381914064110956
 -0.1357463907002231 0.2180407463462743 -0.12338123399327149 0.22667822579782373 -0.7434006934753942 -0.5569704669767782
524747474.74747473 0.09696867563113583 -0.15432570085223887 -0.9150682077681161 -0.23049179997867833 -0.16445071483191406 0.23773864248104662
 -0.9081874519337931 -0.2321504095148359 0.07461397411841439 -0.1691300919206584 -0.14887894870361348 0.2468681397369501
 -0.15913471838079365 0.22849309380074298 -0.14485166326615279 0.23932299721378764 -0.6985704560583759 -0.5922421683563867
572222222.2222222 0.11112775992587783 -0.16097983480413644 -0.9015160781187759 -0.24486361378902144 -0.1892843621526153 0.24626595397488185
 -0.8945316376138103 -0.2466443761974164 0.08665081289015593 -0.17866946263137856 -0.17157311901880878 0.2577122518124462
 -0.183168983306485 0.2365483264770846 -0.16691382238617103 0.24976066000833208 -0.6523226924166132 -0.6231622817187417
619696969.6969696 0.12550835096712953 -0.16623935806694226 -0.8876851898798371 -0.2580094421505576 -0.21449737881243355 0.2523497759354312
 -0.8805698560076365 -0.25990443979257827 0.09894320655990572 -0.18711007907388064 -0.19466277087704226 0.26639468943294736
 -0.20754081848140393 0.24219426943256772 -0.18930084540614825 0.25813087001889007 -0.6051225136182918 -0.6497920763955114
667171717.1717172 0.1399660425691922 -0.17017937578321815 -0.8736863079092484 -0.2699812905837953 -0.23984375647971873 0.2560609766492804
 -0.8664445392189537 -0.27197166496433606 0.11137954530298923 -0.19450030082539183 -0.21793444150713379 0.27298379754691277
 -0.2320167823128278 0.24557572360462285 -0.21190504717391478 0.26451970424038496 -0.5574055750654243 -0.672242371741737
714646464.6464646 0.1543990485748169 -0.17282962537907107 -0.8596146819392795 -0.2808131022733004 -0.26509689475079234 0.2574950833569552
 -0.8522476589373987 -0.2828982498396864 0.12387866632629936 -0.20088335756217132 -0.2411937544938441 0.27756375862017296
 -0.2564147102905568 0.24672175318979547 -0.23454101498070665 0.2689081124944993 -0.5095711856117282 -0.6906796181953769
762121212.1212121 0.16866528081658408 -0.174261980143555 -0.8455842148500378 -0.290550874065824 -0.2900625404878966 0.25677016200163916
 -0.838086853247959 -0.2927276309583263 0.13635477933223322 -0.20629293324487472 -0.26427270424212557 0.2802368996015512
 -0.2804815072452118 0.24577766635312284 -0.256949305609249 0.2714054486159678 -0.46195902802192385 -0.7053102119983238
809595959.5959595 0.1827024309367074 -0.17455582944074072 -0.8316821582186251 -0.299272529455101 -0.31457587328445075 0.25401255592879046
 -0.8240397637075243 -0.3015363868031791 0.1487223906901558 -0.21078866866522594 -0.28702662672443796 0.28111179345865484
 -0.30412283647803334 0.2428773675590081 -0.27901073764570217 0.2722063760924015 -0.4148437376154451 -0.7163585573252402
857070707.070707 0.1964095232731063 -0.17376423371772157 -0.8179621486907098 -0.3070469152136091 -0.3385014627184513 0.2493563712493081
 -0.8101734504176987 -0.3093757050613193 0.16092752457573908 -0.21443790610432742 -0.30933365667291257 0.28030628171299155
 -0.3271580861343643 0.23810855417357432 -0.3006863222107859 0.27139798865685216 -0.36845133882118947 -0.7240486309457914
904545454.5454545 0.20972682123967604 -0.1719900592703858 -0.8044765070863776 -0.31392424381708994 -0.36172646319048574 0.24292957591694003
 -0.7965546073629198 -0.3163203396906856 0.17293030186229055 -0.2172908851775281 -0.33109504191778427 0.27793806176861674
 -0.3494956387455761 0.23165663139804427 -0.32184998735737474 0.2690215055214338 -0.32297004852498856 -0.7285903190223413
952020202.0202019 0.22260991169340572 -0.16928104694692944 -0.7912887698499134 -0.31996609053407665 -0.3841584999898532 0.2348617205957975
 -0.7832164507123496 -0.3224324038682645 0.18468172750809825 -0.21939556568381552 -0.3522351855774779 0.2741242174084059
 -0.371056548227266 0.22359124400225966 -0.34235790790058196 0.26522629083743543 -0.27856269274802825 -0.7301960805736553
999494949.4949495 0.23499465852013415 -0.1657253100491128 -0.7784342365776791 -0.3252532500870944 -0.40571947056515467 0.22527608980366204
 -0.7702082460327714 -0.3277706429231646 0.19614497374486833 -0.22081760450694207 -0.3726918165574559 0.26897331141630115
 -0.39172792856296523 0.21408004167205627 -0.3621961705521494 0.2601825392482362 -0.23536205474341723 -0.7290778871317161
1046969696.9696969 0.24687223201191155 -0.16139161792770537 -0.7659242095879071 -0.3298400868528611 -0.42634847665782677 0.21429820570258318
 -0.7575494217314739 -0.3324051246408316 0.20730733884804778 -0.22161280044694456 -0.3924170286185601 0.262592882504858
 -0.41150932371288546 0.2032269932285488 -0.3813694899833502 0.2539380149003775 -0.19347911192782635 -0.7254495408818142
1094444444.4444444 0.2581943021829562 -0.15633213196626905 -0.7537871883392341 -0.3337689142071545 -0.4460043031184151 0.20204516408808737
 -0.7452649168659523 -0.33637925757817366 0.21815253648590544 -0.2218197303667292 -0.4113767890630413 0.25508193553963404
 -0.43030501390740084 0.19112914810751097 -0.399784393826145 0.24655219602449677 -0.1529689262206438 -0.7195166918720997
1141919191.9191918 0.26895434936771545 -0.1506314936477809 -0.7420518899264442 -0.3371015971960867 -0.4646594234046626 0.1886244118212433
 -0.7333728454510479 -0.33975638971379635 0.2286576902528119 -0.22148410891534606 -0.4295488322648952 0.2465351192265578
 -0.4481202355974018 0.17793498542638836 -0.41739234159989225 0.2381771314629118 -0.11386851739816828 -0.7114510772787903
1189393939.3939393 0.279139331989503 -0.14432169799135436 -0.7307154789952902 -0.3398959045381133 -0.4822967693909127 0.1741299133543008
 -0.7218751746457039 -0.34257899087179416 0.2388199138127062 -0.2206567144899474 -0.4469215859777468 0.23703722969737934
 -0.46493546684782294 0.1636854180373897 -0.43424236538615096 0.2289151648869871 -0.07620179647586202 -0.7014024511847388
1236868686.8686867 0.2887286780477551 -0.13747343326727807 -0.7197751661603213 -0.3421843818826806 -0.49890088513318953 0.15864526560163425
 -0.7107870540339001 -0.344890954920221 0.248644068744672 -0.21937204353237907 -0.46348955323902696 0.22666175028085686
 -0.48071306365865657 0.1485099150331889 -0.450345454528923 0.21877491020063133 -0.03998844046244482 -0.6895007829142538
1284343434.3434343 0.29773624178787883 -0.13012248979825247 -0.709245474035811 -0.34399586407344035 -0.5144631708188444 0.14224860963498498
 -0.7001027476322452 -0.3467350216965766 0.2581269497420028 -0.21765316488862801 -0.4792548840726329 0.2154747107767729
 -0.4954854565764763 0.13245807740345197 -0.46563530771324607 0.2078127268790167 -0.005246629830684962 -0.6758736713269613
1331818181.8181818 0.30613510890640366 -0.12230914688929957 -0.6991350445570691 -0.3453785745375264 -0.5289793711244976 0.12500928096148733
 -0.6898288972588889 -0.3481365998972725 0.2672601553861336 -0.21553420286614497 -0.49422225343321635 0.2035319792223183
 -0.5092038888801301 0.11560133213519017 -0.4801187626118406 0.196149521644224 0.028027972047920673 -0.6606328459467661
1379292929.2929292 0.3139408013085854 -0.11408360565093847 -0.6894261347838467 -0.34636445595310733 -0.5424495447280581 0.10698713336947804
 -0.6799625611830273 -0.3491347735388283 0.2760568461259572 -0.21304443480443241 -0.5083974466670881 0.19087970189389977
 -0.5219114508561497 0.09802177788177668 -0.4938660719581166 0.18382162763261217 0.05984949754357898 -0.6438744473283722
1426767676.7676766 0.32114400555817363 -0.10545621328649586 -0.680116796966301 -0.3469626800115402 -0.5548800961288246 0.08823229225041404
 -0.6704997993259122 -0.3497432780511901 0.2845262026586634 -0.21019584471673403 -0.5217923461647274 0.17755842855345788
 -0.5335909052694163 0.07972359626271999 -0.5068690230562904 0.1708068601337396 0.0902416429217081 -0.62566832814951
1474242424.2424242 0.32773883071333554 -0.09647358701640153 -0.6712176638249615 -0.347191687120539 -0.5662730944994572 0.06877718271550193
 -0.6614448946191323 -0.34998660615613286 0.2926660768830499 -0.20699667154198387 -0.5344185623252492 0.16359380476152602
 -0.5442377944550002 0.060789617328097914 -0.5190863559387067 0.15715696038563745 0.11922878887502598 -0.606046986982629
1521717171.7171717 0.3337355480114891 -0.08714228928489233 -0.6627271643847196 -0.3470774679584308 -0.5766258786839404 0.048645683891685686
 -0.6527894031050826 -0.3498777659539083 0.3004786350390868 -0.20346397270424688 -0.5462869850427495 0.149001250875948
 -0.5538807063740756 0.041210138150285854 -0.5305599393125122 0.14293281269825056 0.14681529716351907 -0.5850260256353926
1569191919.191919 0.33910658726968435 -0.07748323317970172 -0.6546328958167624 -0.3466231578629811 -0.5859305162358502 0.027853190084994466
 -0.6445423737266888 -0.34942065349664814 0.30797608930570636 -0.1996020707545732 -0.5574056901113893 0.13378508764349978
 -0.5624718887540766 0.021016393997655144 -0.5413369753715729 0.12810389082776596 0.17299579475411175 -0.5626118396621107
1616666666.6666665 0.343861099987002 -0.06751380602308432 -0.6469458075262804 -0.3458201587048117 -0.5941744047861542 0.006407747880498051
 -0.636701846210787 -0.3486251372343241 0.3151618961234046 -0.19540013296048833 -0.5677800756912282 0.11793906375727527
 -0.5700411111943363 0.00022457878536728685 -0.5513813594869647 0.1126274703201906 0.19776485652515974 -0.5387946478925747
1664141414.141414 0.347970999713398 -0.05722776965284899 -0.6396826655205567 -0.34467160787039575 -0.6013385284347433 -0.015696853502019256
 -0.6292771437201758 -0.34747952480064914 0.3220280825762892 -0.19084883916808026 -0.5774065425815288 0.10144211740906198
 -0.5765399037481049 -0.021197745746244754 -0.5606592525531271 0.09653117645344661 0.22112395354628736 -0.5135346033391438
1711616161.6161616 0.3514175172318248 -0.0466459566909563 -0.6328496523444859 -0.34317741454312134 -0.60739263045146 -0.03848321236816277
 -0.6222858225327944 -0.3459820590287936 0.32857185340476613 -0.18593977868889525 -0.5862767710841696 0.08425854789964586
 -0.581954278901069 -0.04322826013442451 -0.5692162327970066 0.07980413585167753 0.2430527550102728 -0.48674833054928884
1759090909.090909 0.35417631594003574 -0.03574659794908684 -0.6264571594299756 -0.34130957102877696 -0.6122943390670291 -0.06198556913543065
 -0.6157405143855161 -0.34411193724503514 0.33479357801804976 -0.1806453639226399 -0.594373888863864 0.06633895219320504
 -0.5862485121119348 -0.06594212841714868 -0.5770463308661579 0.062342579244591044 0.26349429331646085 -0.4583189130253797
1806565656.5656564 0.3561887184656782 -0.024534647160554264 -0.6205497688775191 -0.3390379467617243 -0.6159686329970229 -0.08625748925731032
 -0.6096807545712813 -0.3418469351284237 0.34067084892568394 -0.17492479983364265 -0.6016599252692598 0.04760947487819728
 -0.5893225010759885 -0.0893573152029285 -0.5840620365309728 0.044069301081147934 0.282360740405286 -0.4280870659988456
1854040404.0404038 0.3574131027775436 -0.01299891757175191 -0.6151739329040136 -0.33634136889824406 -0.618314640408798 -0.11136495378693767
 -0.6041430533829178 -0.3391592520797368 0.3461741365834906 -0.16873800965885666 -0.6080772650374593 0.027974349982887902
 -0.5911221025736227 -0.11353901709404772 -0.5902039408367346 0.02494278487157409 0.29950698055791003 -0.39586029173400267
1901515151.5151515 0.35775228302650924 -0.001117609073598659 -0.61038289337327 -0.33318173511959537 -0.6191948862392855 -0.13738738440458642
 -0.5991938322715182 -0.3360029157466847 0.35126718551956504 -0.16203207885183185 -0.6135374895856295 0.007314731280813619
 -0.5914769389095298 -0.1385773170199723 -0.5954330479502157 0.00484518542194507 0.3147295441370687 -0.3614021624417345
1948989898.989899 0.3571082176969943 0.011106239070683335 -0.6062631813470284 -0.32949881271332376 -0.6184155896050686 -0.16442340154851828
 -0.5949218496706127 -0.33233901028405227 0.3558926462580737 -0.15472952677814583 -0.617906276735188 -0.014521150547078032
 -0.5902270917581606 -0.16453283915489336 -0.5996122865629324 -0.01641716088758156 0.32774923239144643 -0.3244122525506414
1996464646.4646463 0.35533328725910196 0.023700305534209737 -0.6029507699276778 -0.3252355692929705 -0.6157104060687443 -0.1925883593195725
 -0.5914445008176885 -0.32810512420477933 0.35995405356376364 -0.14673695850389554 -0.6209880804738017 -0.037718524801930914
 -0.5871116099761623 -0.1915495226895552 -0.6025036883998722 -0.039007042408799486 0.3381545274208862 -0.2845101863796396
2043939393.9393938 0.3522194038581832 0.03664763227706882 -0.60061630240727 -0.32034129409992984 -0.6107067338701221 -0.2220091111242598
 -0.588941500859726 -0.32324694126963366 0.36331692250180586 -0.13795534180989477 -0.622497242536159 -0.06249972156538103
 -0.5817527271731421 -0.21970449304156536 -0.6038500941102397 -0.06309694894390984 0.34532704450164287 -0.2412345495375398
2091414141.4141412 0.3475126616642072 0.04992581487401138 -0.5994955925967765 -0.31475136212869564 -0.602871790177503 -0.2528007687851901
 -0.5876471088193068 -0.3177078138045277 0.365790418514357 -0.12825785256393943 -0.6220071796624477 -0.08912611914816673
 -0.5736781120463179 -0.2491194694691884 -0.6032763652498424 -0.08896689549069255 0.34835986244306966 -0.19406937578964603
2138888888.8888888 0.3408301567735173 0.0634529125447179 -0.5999418986133394 -0.3084186807456383 -0.5914634144278 -0.28503061195755197
 -0.5879095901270454 -0.3114500698880095 0.3670819297666844 -0.11750268996949521 -0.6188922203178095 -0.11787591169028797
 -0.5621382873644098 -0.27984835560021465 -0.6001360128434917 -0.11691521428952972 0.34593071610413106 -0.14247152995144557
2186363636.363636 0.33169579823297385 0.07703069305625083 -0.6024505540694862 -0.30136440344516996 -0.5754367485717423 -0.31864232322918246
 -0.5902072458480955 -0.30449966198826506 0.3667529280658741 -0.10556135374662236 -0.612223536956045 -0.14900826448012242
 -0.546170761390015 -0.311798100134716 -0.5935009517292181 -0.14714807325251988 0.33610087905258523 -0.08596304082415905
2233838383.8383837 0.31946001801973317 0.09029398739798389 -0.607701755881227 -0.2937371842652722 -0.5533386058714468 -0.35330417975452777
 -0.5952128864169419 -0.2969962709124223 0.3641622080003774 -0.0923644147604742 -0.6006321173176764 -0.1826549827032907
 -0.5243751739962218 -0.34466355312738395 -0.5820817291281457 -0.1797639919803981 0.31602938948747233 -0.024341799063967134
2281313131.3131313 0.3033106428285826 0.10249143133799418 -0.6166269082326672 -0.2859385687486333 -0.5231844448279859 -0.38810634059321397
 -0.6038510535922056 -0.28935786837018723 0.3583741944112625 -0.07799702118244492 -0.5821154689327598 -0.2185908710248789
 -0.4948687000749739 -0.3775099564001324 -0.5639556630903032 -0.2145763848983088 0.2815964722668135 0.041830532629682705
2328787878.7878785 0.28236391762407276 0.11227016056181464 -0.6304372931968796 -0.2789046105525575 -0.48244881667719275 -0.4209964967998157
 -0.6172887549807187 -0.2825204626624447 0.34805856246034783 -0.06293722737796897 -0.5538701899098976 -0.25573881216830463
 -0.45529020684408344 -0.4083639639464403 -0.5363614202490056 -0.2505327930846155 0.22704779877544282 0.11019213274214414
2376262626.262626 0.2559464090336955 0.11723497578009402 -0.6504369083151479 -0.2745713630696226 -0.4284318377405876 -0.4478187895307542
 -0.6367952118277309 -0.27839442048738544 0.33151767413174266 -0.048507934800474634 -0.5123366885212348 -0.29122216835818043
 -0.4030934413748998 -0.4331977266339551 -0.4958595131212078 -0.28477671539984123 0.1451610709817841 0.17462577558964623
2423737373.7373734 0.22452114622184624 0.11359478752190144 -0.6773524352681063 -0.2764410185393032 -0.3597005457953756 -0.4610802341859025
 -0.6630531048601171 -0.28043735181970986 0.30710605259686746 -0.03757723516215966 -0.4541151731305568 -0.3188695268503355
 -0.3370659258102049 -0.44482465499701007 -0.4392304450014175 -0.3113017594894727 0.02920698946642001 0.2221950561573259
2471212121.212121 0.19137137703040266 0.09653050192260848 -0.7097004387077133 -0.2897894992875738 -0.27962316231431783 -0.4495854161323452
