!Created with skrf (http://scikit-rf.org).
# Hz S RI R 50.0 
!freq ReS11 ImS11 ReS21 ImS21 ReS12 ImS12 ReS22 ImS22
500000000.0 0.06362230033810887 -0.14474399789416725 -0.8855784525176207 -0.3290805706945172 -0.8886821873441126 -0.3303476481887764 0.066073982749877 -0.14381187767622478
548811013.767209 0.07436411251612206 -0.15280540189754807 -0.8708188097959224 -0.35714621543962244 -0.873802528213596 -0.35851432798918353 0.07660787605687566 -0.1518692520050368
597622027.534418 0.08540207718864862 -0.1601558026361017 -0.8552835620663771 -0.384292187155398 -0.8581572997501272 -0.3857442767079958 0.0874476999777012 -0.15923806602259552
646433041.301627 0.09670463476199967 -0.1668186097168058 -0.8390227616085039 -0.4105486031584128 -0.8417994236127941 -0.41206967360939134 0.09855861660240785 -0.1659358023594987
695244055.068836 0.10825350082354256 -0.1728087232136824 -0.8220753088383711 -0.43593539698118267 -0.82476594584485 -0.4375193600231836 0.10992229891172572 -0.17197464219932332
744055068.836045 0.12003493847490086 -0.17812944152045823 -0.8044747207516011 -0.46046139179230505 -0.8070888741044533 -0.4621072676036936 0.12152321276469508 -0.17735346597874832
792866082.6032541 0.13203622788104177 -0.1827727700540396 -0.7862542144970064 -0.484132901521443 -0.7887980303278369 -0.4858419365397288 0.13334520026483995 -0.182066911556238
841677096.3704631 0.1442359044095008 -0.18672120743338042 -0.767446769352221 -0.5069478485749126 -0.7699239934257581 -0.508722544934984 0.14536555526269584 -0.18609709696395965
890488110.1376721 0.15660458354632975 -0.18995972166126562 -0.7480872511633659 -0.5289029080149535 -0.7504973023646494 -0.5307461593858098 0.1575546928834691 -0.18942821476337313
939299123.904881 0.169104069514587 -0.1924660367917844 -0.728214380156092 -0.5499908185729819 -0.7305540077396265 -0.5519053069121928 0.16987297417855643 -0.1920411314314957
988110137.67209 0.18168760860775504 -0.1942314557228312 -0.7078679364030724 -0.5702144383255862 -0.710132576661282 -0.5721979685869376 0.18227692435964418 -0.19392930827638533
1036921151.4392991 0.19430353255296676 -0.1952510274365067 -0.6870915617581321 -0.5895708313611023 -0.6892756806958699 -0.5916204417863722 0.19471515611641746 -0.19508781012961052
1085732165.2065082 0.20690003954952232 -0.19552876196209953 -0.6659246413618591 -0.6080634967570643 -0.6680237441477358 -0.6101755032376569 0.2071384678857551 -0.1955225218890637
1134543178.9737172 0.2194254145910099 -0.19507846020828207 -0.6444081310612688 -0.6257004292744774 -0.6464187359259582 -0.6278682155416447 0.21949835566303844 -0.19524467540934076
1183354192.7409263 0.23183504533213134 -0.19391990394066147 -0.6225791424719344 -0.6424916531092578 -0.6244999704319294 -0.64470667347509 0.2317508990415616 -0.19427455233531957
1232165206.508135 0.24408862591192743 -0.19207958734141342 -0.6004726446872648 -0.6584477130083602 -0.6023055983211256 -0.6607033517576678 0.24385824015882412 -0.19263696078756176
1280976220.2753441 0.2561528990143636 -0.18958034958664288 -0.5781197402648227 -0.6735813760597643 -0.5798675209794055 -0.6758724250180947 0.25578950533044 -0.19035320529070582
1329787234.0425532 0.2680004717997001 -0.1864520713791924 -0.5555512004831122 -0.6879060363007666 -0.5572170106775587 -0.69022707255138 0.2675159760454937 -0.18744937429005873
1378598247.809762 0.2796074835001296 -0.18271786533796927 -0.5327941707176295 -0.701433892981794 -0.5343826929221497 -0.7037837246206508 0.27901422831820666 -0.18394832009761813
1427409261.576971 0.2909533827553266 -0.17839624499506448 -0.5098738924243102 -0.7141775908387756 -0.5113872870275488 -0.7165554129406857 0.29026469732705407 -0.1798668835197712
1476220275.34418 0.30201739684968903 -0.1735082891801177 -0.48681596716855097 -0.7261500077603515 -0.48825674394146024 -0.7285571436352245 0.3012446654004921 -0.17522598552049892
1525031289.1113892 0.3127783529328345 -0.16807032826148205 -0.4636440515541106 -0.7373642887749913 -0.46501251974034996 -0.7398004640006739 0.3119325021225413 -0.17004087006255963
1573842302.8785982 0.3232127482312972 -0.16210108832604406 -0.44038218062121565 -0.7478340098763329 -0.4416761594909576 -0.750300459071037 0.3223057128746277 -0.16432990471301448
1622653316.6458073 0.3332974572424727 -0.15561675435784733 -0.4170495274404053 -0.757572886886389 -0.4182680693036529 -0.7600686711691274 0.3323403954983593 -0.15810937149002974
1671464330.4130163 0.3430084208694496 -0.14864021711032427 -0.3936684917164818 -0.7665962841310662 -0.39480848518894723 -0.7691200477829653 0.3420132497491286 -0.15140261635856725
1720275344.1802251 0.35231990379973027 -0.1411939247606736 -0.37025780508552075 -0.7749195433103906 -0.37131643071450504 -0.7774674267636086 0.35129966215580627 -0.14423094188035362
1769086357.9474342 0.361210764984999 -0.1333041820797644 -0.34683387503797924 -0.7825578846123463 -0.3478107455834233 -0.7851267372332382 0.36017920871208214 -0.13662169805530225
1817897371.7146432 0.3696616423760123 -0.12500012937808844 -0.3234128870299536 -0.7895278191927827 -0.324307104954218 -0.7921113956154144 0.36863269485929345 -0.12860043427710777
1866708385.4818523 0.3776555182039192 -0.11631112019836752 -0.30000792144364413 -0.795843547152122 -0.30082092450674064 -0.7984388854113619 0.37664516883785304 -0.12019801266027759
1915519399.2490613 0.38518110436997594 -0.10726781796682734 -0.27663172130518043 -0.8015218024088627 -0.2773651306984934 -0.8041239672370089 0.38420412015322297 -0.1114414595838829
1964330413.0162702 0.39222779601534413 -0.09789978500255282 -0.25329530559501473 -0.8065760081969537 -0.25395152960318984 -0.8091830209969696 0.39129945131508587 -0.10236019034381585
2013141426.7834792 0.3987895216907364 -0.08823418314957049 -0.23000760535386727 -0.8110200798758351 -0.23059008155288188 -0.8136304330118854 0.39792507966376595 -0.09297906716196745
2061952440.5506883 0.4048600413610096 -0.07829686694688565 -0.20677790159812903 -0.8148675841728938 -0.20728867896828415 -0.8174800495407734 0.4040744462420904 -0.08332418363139044
2110763454.3178973 0.41043487378950805 -0.06811256776223658 -0.18361436953147633 -0.818130488853586 -0.18405512192041956 -0.820746276040001 0.40974221438043285 -0.07341866982427303
2159574468.0851064 0.4155091721716118 -0.05770370102534377 -0.16052389700836564 -0.8208218737354309 -0.16089446237685617 -0.8234404270215441 0.4149232582916326 -0.06328434447683047
2208385481.852315 0.42007798678453273 -0.04709353363576019 -0.1375129289642903 -0.8229521212160268 -0.13781365560924447 -0.8255749958824717 0.41961153905879744 -0.05294355928335442
2257196495.619524 0.4241350612157356 -0.03630320178732795 -0.11458746039570833 -0.824533714155921 -0.11481665903973073 -0.8271589600110353 0.42380073091853865 -0.042417346207513265
2306007509.386733 0.4276755362133605 -0.02535645875002824 -0.09175185932116978 -0.8255752355059592 -0.091908440389069 -0.8282019972194463 0.4274853717432678 -0.03172887170053458
2354818523.153942 0.43069408916139396 -0.014277254764705163 -0.06901066652152531 -0.826087374441765 -0.06909315082679714 -0.8287138525946551 0.43066171841803685 -0.020901961511524972
2403629536.921151 0.43318593651815784 -0.003091155933289862 -0.046368086111464535 -0.8260794302686164 -0.04637558385982986 -0.8287015389757653 0.43332356233718394 -0.009960828478322964
2452440550.68836 0.4351495592398608 0.008176602767060007 -0.02382604463563139 -0.8255577533753842 -0.023759294893651823 -0.8281735014453289 0.43546886945486973 0.0010694164478083279
2501251564.4555693 0.4365828886652336 0.019499171968484795 -0.001388887883486312 -0.824531531435858 -0.0012485272399826548 -0.8271369115467179 0.43709633658876373 0.012163766063886737
2550062578.2227783 0.4374889553417128 0.030851434185263437 0.0209414459822819 -0.8230052705992227 0.021154011303756822 -0.8255982798879069 0.4382077838554353 0.023296957182905642
2598873591.9899874 0.43786887414990067 0.042207510600085305 0.04316260053465151 -0.8209867385483851 0.04344469974772309 -0.8235643168703383 0.43880418714199365 0.03444461696413601
2647684605.7571964 0.4377275170536099 0.05354355418642788 0.06527163272419072 -0.8184796367267927 0.0656219890218026 -0.8210418554741221 0.4388897066009455 0.045583946918733874
2696495619.5244055 0.4370716151925069 0.06483788918153346 0.08726670151183392 -0.8154892038371733 0.08768307450853523 -0.8180347734116893 0.43847006189947185 0.056692599875895706
2745306633.2916145 0.4359049122385035 0.0760676032523687 0.10914546437554971 -0.8120188815839413 0.10962662544263804 -0.8145477602329018 0.4375476039388678 0.06775005401446164
2794117647.0588236 0.43423362123746856 0.08721293465135635 0.1309059394016305 -0.8080729257781142 0.13145188345857817 -0.8105850036263484 0.4361281480279374 0.07873568095979619
2842928660.8260326 0.4320619337760791 0.09825287072099934 0.1525466073047715 -0.8036525670446196 0.15315706999061865 -0.8061480378897795 0.434216427530576 0.08962932360247912
2891739674.593241 0.4293959093692171 0.10916755206855412 0.17406510552599988 -0.7987595993027544 0.1747412105545072 -0.8012380940812976 0.4318162019433152 0.10041073139449465
2940550688.3604503 0.42624109802657667 0.11993589878468197 0.19545971250477084 -0.793395873545134 0.19620230186679238 -0.795856512871892 0.42893298701500404 0.11105987303505684
2989361702.1276593 0.422603252840423 0.13053697823450439 0.21672823918414574 -0.7875615240237948 0.21753771630219013 -0.7900008028730927 0.42557181892711643 0.1215556209424515
3038172715.8948684 0.4184880983821926 0.14094810109400224 0.2378680526222923 -0.7812546265137766 0.23874458132752005 -0.7836710337952038 0.42173789439665094 0.13187587568982742
3086983729.6620774 0.4139035049033485 0.1511471604238598 0.25887561361605765 -0.7744745385458324 0.2598192383686165 -0.7768655081488323 0.41743925352182243 0.14199954501062856
3135794743.4292865 0.40886095536273165 0.1611127905253406 0.2797471886550494 -0.7672189298091452 0.28075722397378683 -0.7695822196409188 0.41268532412283204 0.1519045518686042
3184605757.1964955 0.40336891093860117 0.17082293084347563 0.300479183012682 -0.7594864091382253 0.3015532071137246 -0.7618190138457381 0.4074847209520281 0.16156968042696018
3233416770.9637046 0.3974409270938786 0.18025495554227938 0.3210659988326816 -0.7512727670580838 0.32220333858304 -0.7535734401321765 0.4018489534912219 0.17097396267145396
3282227784.7309136 0.39108989334671196 0.18939004161820086 0.34150169958918014 -0.7425757630667301 0.34270031170636334 -0.7448431708697351 0.395790308171841 0.18009697802836794
3331038798.4981227 0.3843284694961643 0.1982089997998969 0.36178145543749524 -0.7333923065586647 0.36303981507481836 -0.7356259633905985 0.3893214541134674 0.1889208017472265
3379849812.2653313 0.37717245312077335 0.20669210635653884 0.38189814085204443 -0.7237183613913197 0.3832150354312226 -0.7259176032971094 0.3824559149548712 0.19742553330987303
3428660826.0325403 0.3696357881711572 0.2148219124014501 0.4018447524682237 -0.7135503807271828 0.403219840891219 -0.7157145324963202 0.3752071592425587 0.2055936794709252
3477471839.7997494 0.3617338223518699 0.22258067639422494 0.42161376181913574 -0.7028831496670161 0.42304742479535046 -0.7050125193927606 0.36758923449291386 0.21340737661681775
3526282853.5669584 0.3534812013227573 0.22995113088561756 0.4411972890809173 -0.6917124302513419 0.44268950369019583 -0.693805588499038 0.3596160886791523 0.220848385295787
3575093867.3341675 0.34489451551965195 0.23691532959362296 0.46058612130179827 -0.6800331967269839 0.46213748911496905 -0.6820884535915968 0.3513035030308351 0.2279002123864418
3623904881.1013765 0.33599050578377015 0.24345536986106242 0.47976986898890067 -0.6678391972034919 0.48138048841866937 -0.6698546909562115 0.342666604584618 0.2345433169814889
3672715894.8685856 0.3267868854699299 0.24955410092794061 0.4987379151171019 -0.6551249713085828 0.5004077698318905 -0.6570983058416117 0.3337232294251378 0.2407610953223665
3721526908.6357946 0.3173034208410206 0.25519433072335984 0.5174775701176264 -0.6418857341095202 0.5192057944026538 -0.6438138817246305 0.3244915933353976 0.2465365409578286
3770337922.4030037 0.307561042371604 0.2603569996813809 0.535974663294377 -0.6281131377336124 0.537760660801267 -0.6299939649166552 0.31499134259349376 0.25184949321608513
3819148936.1702127 0.29758179937291035 0.265029243062645 0.5542157048532096 -0.6138046230359661 0.556057327710235 -0.6156360410701551 0.3052441207178085 0.25668763925533455
3867959949.937422 0.28738952223194963 0.26919461581314386 0.5721828863456503 -0.5989542028905512 0.5740787494446175 -0.6007342941151806 0.29527261268959804 0.2610335879346399
3916770963.7046304 0.27700916133793285 0.27283883231708744 0.5898611045736968 -0.5835577395497666 0.5918088680626814 -0.5852847718467553 0.28510036495585683 0.26487267963765754
3965581977.4718394 0.26646595165322556 0.27595181053053164 0.6072318315153177 -0.5676131111484459 0.6092296496459108 -0.5692857029078924 0.2747510950286982 0.2681935925374192
4014392991.2390485 0.25578604131659793 0.27852034935022774 0.6242764126766607 -0.5511151319688393 0.6263231362901004 -0.5527332118770878 0.2642511591447489 0.27098365506279415
4063204005.0062575 0.24499664482068426 0.28053532494941774 0.6409755937641011 -0.5340631316936996 0.6430702631784057 -0.5356254521515799 0.25362526185589274 0.2732326431463412
4112015018.7734666 0.23412542769645392 0.28198722548278277 0.6573088760226948 -0.516453707429871 0.6594506734976932 -0.5179591891778947 0.24290112157087154 0.27492938455474547
4160826032.5406756 0.22319954355490626 0.2828688804879576 0.6732551970492584 -0.4982866204836277 0.675443809176945 -0.4997343872843782 0.2321045665210142 0.27606647102257015
4209637046.3078847 0.21224931191758192 0.2831731736203152 0.6887915520143917 -0.4795611886145262 0.6910258293327561 -0.48094876967484085 0.22126525271124473 0.27663481956769764
4258448060.0750937 0.20130353962074815 0.2828934986587496 0.7038940474090567 -0.4602771209052997 0.7061740816425226 -0.4616030839311715 0.21041182470631645 0.2766276909834766
4307259073.842302 0.19039433075092024 0.28202518602164306 0.7185382942280336 -0.4404364308766018 0.7208622600935888 -0.44169855557511 0.1995745270527656 0.2760398651031601
4356070087.609512 0.1795530904282144 0.28056583278816716 0.7326974717560258 -0.4200420008036376 0.735063393047303 -0.42123704865627426 0.18878614481667352 0.2748654879695138
4404881101.37672 0.16881460084630878 0.27851331525642914 0.7463436139711606 -0.39909789797202133 0.7487501878075835 -0.40022426976084546 0.17807820601481164 0.2731039312382798
4453692115.1439295 0.1582112619005607 0.2758695700315044 0.7594504278755511 -0.37761189671512785 0.7618945579573166 -0.37866720810762905 0.16748451026813896 0.27075458300721084
4502503128.911139 0.1477791054562939 0.2726372056837154 0.771987797438455 -0.35559178720646534 0.7744678413801878 -0.35657514119915446 0.1570392723172181 0.26781941852415736
4551314142.678348 0.1375521363691502 0.2688221496542879 0.7839272890676506 -0.3330477611960846 0.786440285674574 -0.333957238298578 0.14677687581079613 0.2643016067035519
4600125156.445557 0.12756580184691774 0.2644309520899173 0.7952394379755007 -0.3099920203646111 0.7977830162423418 -0.31082754043131455 0.13673263638302513 0.2602081628614063
4648936170.212766 0.11785555857797415 0.2594744505917049 0.8058952854710496 -0.28643908203210394 0.808466721972236 -0.28719923682351334 0.12694065918893524 0.2555470951020109
4697747183.979975 0.10845465594472682 0.2539661999738826 0.8158660370761432 -0.262406205584839 0.8184638918601872 -0.2630904800250609 0.11743515365373236 0.2503302501528239
4746558197.747184 0.09939880714744516 0.24791864057279278 0.8251211522656068 -0.2379096241050459 0.8277440377837323 -0.23851723132036284 0.10825066198680292 0.24456965744125783
4795369211.514393 0.09072082762281931 0.24134954051054686 0.8336338634971072 -0.21297101564199838 0.83627965210535 -0.21350061839647447 0.09942045968490125 0.23828027481119482
4844180225.281602 0.08245433576106635 0.23427735203273226 0.8413738906492051 -0.1876111699951 0.8440406106793688 -0.1880616296009869 0.0909789462159127 0.23147964751671765
4892991239.048811 0.07463292780424831 0.22672346632557155 0.8483122708359292 -0.1618556891210228 0.8509983667162327 -0.16222490441268467 0.08295934376350036 0.224186945903798
4941802252.81602 0.06728837272104682 0.21871134785071852 0.8544216672544509 -0.1357308332468117 0.8571243319435207 -0.13601715786246685 0.07539368233814468 0.21642374254845653
4990613266.583229 0.060450810632728745 0.21026747649307628 0.8596748081181103 -0.10926581056997552 0.8623913940655938 -0.10946798696694474 0.06831359759854036 0.2082153655280543
5039424280.350438 0.05415080172382597 0.20142059584311273 0.8640456929925464 -0.08249354286588623 0.8667731944419281 -0.08261001962686673 0.06174943678715239 0.19958868684392064
5088235294.117647 0.0484166250082764 0.19220222097448572 0.8675100797721603 -0.05544778707449543 0.8702446334557791 -0.05547764796264897 0.055730983818838856 0.19057364178321992
5137046307.884856 0.04327372796586137 0.18264510945622348 0.8700452269993677 -0.028165387279219467 0.8727831980447586 -0.02810767957303552 0.05028416782269448 0.18120183844911883
5185857321.652065 0.038747367775636046 0.17278618943776053 0.8716292324425092 -0.0006854698727990116 0.8743671462087896 -0.000540665020881696 0.045435981844216974 0.1715083989409024
5234668335.419273 0.03485860444065752 0.16266316116520624 0.8722448921984796 0.026951456966192357 0.8749800351364397 0.027183467275439036 0.04120858617659876 0.16152898013902386
5283479349.186482 0.03162542436047773 0.15231549472794256 0.8718773998084302 0.054702646380419294 0.8746063015986176 0.05502141362856577 0.037620115378424406 0.1513028367553104
5332290362.9536915 0.02906527389705645 0.14178489709271463 0.8705116424804134 0.08252410999041333 0.8732317786026295 0.08292941843367485 0.03469134973001767 0.14086915474721057
5381101376.720901 0.027192169960199113 0.1311140446288061 0.8681372006377918 0.11037025723313247 0.8708454841743419 0.1108616252959488 0.032436594153476425 0.13027080650479803
5429912390.48811 0.026015738450213835 0.12034611274664991 0.8647474246840589 0.13819519336202926 0.8674418022428947 0.138772768081326 0.030866348642229886 0.11954910357967134
5478723404.255319 0.025543544949153212 0.10952666125381676 0.8603354829976987 0.16595178651898615 0.8630128183085942 0.16661473952254302 0.029991821836307674 0.10874872398573558
5527534418.022528 0.02578078747497097 0.09870102785086085 0.8548996323233009 0.19359105155615322 0.8575570770366011 0.1943406415242287 0.029818582327636605 0.09791369174536729
5576345431.789737 0.026727267935029716 0.08791497963228304 0.8484408382039067 0.2210656721466509 0.8510754762587629 0.22190017398014308 0.030349098044388793 0.08708961329111017
5625156445.556946 0.028382501867214676 0.07721628977534757 0.8409620153701346 0.24832393812892073 0.8435700266813828 0.24924392550517252 0.031585072660579014 0.07632348740095125
5673967459.324155 0.0307399226234243 0.06665160535121349 0.8324701202332233 0.27531716320708804 0.83504878938669 0.27632249829767186 0.03352145394114241 0.06566093955784867
5722778473.091364 0.03379008065246242 0.05626534388440914 0.8229777423141058 0.30199713789149724 0.8255232497037953 0.30308628040123214 0.03615073856594709 0.05514662418726463
5771589486.858573 0.03752016600287001 0.04610320487741708 0.8124973757404018 0.32831417508879857 0.8150060244892754 0.3294862899439495 0.03946283675114543 0.04482685096778774
5820400500.625782 0.041914618967285405 0.03621162274870681 0.8010470433385274 0.3542206139086551 0.8035146371131513 0.3554728697114775 0.04344533077195874 0.034747502881012776
5869211514.392991 0.046953732467798465 0.026632216340101916 0.7886474939344644 0.37966887522375137 0.7910719208385731 0.38100003642188357 0.04807888661532144 0.02495056514959184
5918022528.1602 0.052614896581839626 0.017406741998866625 0.7753230424587658 0.40461584687621177 0.7777013661562612 0.4060237958812804 0.05334351719701718 0.015477652112484988
